Time [s],Channel 0,Channel 1
0.000000000,1,0
0.000085333,0,0
0.012948125,1,0
0.023396333,0,0
0.040731500,1,0
0.045496542,0,0
0.058492708,1,0
0.067202500,0,0
0.074615125,1,0
0.087667708,0,0
0.139360083,1,0
0.149808333,0,0
0.162802333,1,0
0.167567750,0,0
0.174980500,1,0
0.179745958,0,0
0.187158667,1,0
0.195870667,0,0
0.208864667,1,0
0.219312917,0,0
0.227966333,1,0
0.241018917,0,0
0.248431708,1,0
0.261483750,0,0
0.268896667,1,0
0.281949042,0,0
0.294943083,1,0
0.305391292,0,0
0.312804042,1,0
0.321516042,0,0
0.338851167,1,0
0.349299500,0,0
0.366634500,1,0
0.379687083,0,0
0.392681083,1,0
0.403129333,0,0
0.411782708,1,0
0.424835292,0,0
0.442170417,1,0
0.450882583,0,0
0.463876417,1,0
0.468641917,0,0
0.481635375,1,0
0.486874375,0,0
0.499868417,1,0
0.505107417,0,0
0.518101417,1,0
0.531154000,0,0
0.548489125,1,0
0.574564542,0,0
0.591899125,1,0
0.597138167,0,0
0.604550333,1,0
0.630625750,0,0
0.638038542,1,0
0.648486208,0,0
0.655898958,1,0
0.660664458,0,0
0.673657917,1,0
0.684106125,0,0
0.697100167,1,0
0.707548417,0,0
0.714960583,1,0
0.725408875,0,0
0.732821083,1,0
0.741533083,0,0
0.754527083,1,0
0.764975500,0,0
0.772388083,1,0
0.777626542,0,0
0.788016250,1,0
0.801068292,0,0
0.808481000,1,0
0.818929333,0,0
0.826341500,1,0
0.831580583,0,0
0.848915208,1,0
0.854153625,0,0
0.899769167,1,0
0.912821750,0,0
0.920234458,1,0
0.930682708,0,0
0.938095417,1,0
0.948543667,0,0
0.955956417,1,0
0.973350083,0,0
0.980762833,1,0
0.991211167,0,0
1.008546208,1,0
1.013785167,0,0
1.031120292,1,0
1.044172875,0,0
1.057166917,1,0
1.057166958,1,1
1.067615083,0,1
1.078004958,1,1
1.085476042,0,1
1.102811208,1,1
1.102840542,1,0
1.110282625,0,0
1.117695250,1,0
1.126407250,0,0
1.133819958,1,0
1.138585500,0,0
1.151579917,1,0
1.162027292,0,0
1.169439917,1,0
1.178151875,0,0
1.185564625,1,0
1.190803625,0,0
1.201194583,1,0
1.209905292,0,0
1.217318000,1,0
1.230370583,0,0
1.243364625,1,0
1.248130083,0,0
1.255542833,1,0
1.264256583,0,0
1.271667000,1,0
1.282115250,0,0
1.295109250,1,0
1.305557500,0,0
1.318551500,1,0
1.328999750,0,0
1.341993875,1,0
1.350705750,0,0
1.368040875,1,0
1.378489083,0,0
1.395824208,1,0
1.406272417,0,0
1.423607542,1,0
1.428846583,0,0
1.436258750,1,0
1.449311417,0,0
1.456723583,1,0
1.469776167,0,0
1.477188917,1,0
1.481954375,0,0
1.494948500,1,0
1.521023750,0,0
1.531413417,1,0
1.557488792,0,0
1.574823917,1,0
1.585272208,0,0
1.592684375,1,0
1.597923625,0,0
1.605336167,1,0
1.618388292,0,0
1.660903083,1,0
1.671350542,0,0
1.678763333,1,0
1.683528208,0,0
1.692181625,1,0
1.702629875,0,0
1.715623875,1,0
1.726072083,0,0
1.733484833,1,0
1.742196833,0,0
1.768213667,1,0
1.781266208,0,0
1.807283042,1,0
1.815995000,0,0
1.828989042,1,0
1.839437333,0,0
1.852430792,1,0
1.857196292,0,0
1.864608500,1,0
1.890683333,0,0
1.903677417,1,0
1.908915875,0,0
1.916328583,1,0
1.942404000,0,0
1.949816792,1,0
1.962868833,0,0
1.970281542,1,0
1.996357083,0,0
2.009350958,1,0
2.014589958,0,0
2.021072542,1,0
2.031520792,0,0
2.044514833,1,0
2.054963083,0,0
2.062375250,1,0
2.088450667,0,0
2.097104083,1,0
2.110156667,0,0
2.120546333,1,0
2.130997292,0,0
2.143988583,1,0
2.148754000,0,0
2.161748000,1,0
2.166987000,0,0
2.174399750,1,0
2.200475333,0,0
2.213469208,1,0
2.218707667,0,0
2.226120375,1,0
2.239173000,0,0
2.256508125,1,0
2.266961250,0,0
2.279950333,1,0
2.288662458,0,0
2.301656417,1,0
2.306421292,0,0
2.319415292,1,0
2.329863583,0,0
2.337275875,1,0
2.345987750,0,0
2.353400500,1,0
2.366453125,0,0
2.373865333,1,0
2.386917917,0,0
2.394330667,1,0
2.403042625,0,0
2.410455542,1,0
2.436530750,0,0
2.478672833,1,0
2.489121042,0,0
2.506456167,1,0
2.511221583,0,0
2.521611250,1,0
2.534663875,0,0
2.542076042,1,0
2.552524292,0,0
2.565518292,1,0
2.582912042,0,0
2.595905500,1,0
2.601144583,0,0
2.614138083,1,0
2.624585750,0,0
2.631998500,1,0
2.631998542,1,1
2.645051042,0,1
2.655440708,1,1
2.668493250,0,1
2.677146708,1,1
2.677176083,1,0
2.703222167,0,0
2.716215708,1,0
2.742290542,0,0
2.749702750,1,0
2.760150958,0,0
2.773145000,1,0
2.778384000,0,0
2.785796917,1,0
2.791035750,0,0
2.804029833,1,0
2.814477542,0,0
2.823130417,1,0
2.828369417,0,0
2.835782333,1,0
2.846230375,0,0
2.863565500,1,0
2.889640875,0,0
2.897053792,1,0
2.910106208,0,0
2.917519000,1,0
2.927966667,0,0
2.935379458,1,0
2.945827125,0,0
2.958821125,1,0
2.984896625,0,0
2.992309250,1,0
3.001021250,0,0
3.014015458,1,0
3.019254333,0,0
3.026666583,1,0
3.031905083,0,0
3.044898542,1,0
3.055346958,0,0
3.081363583,1,0
3.086129375,0,0
3.096518667,1,0
3.106966875,0,0
3.117356542,1,0
3.126068583,0,0
3.139062042,1,0
3.144301042,0,0
3.152954458,1,0
3.161666458,0,0
3.187683333,1,0
3.213758125,0,0
3.221170875,1,0
3.231619125,0,0
3.244613125,1,0
3.255139375,0,0
3.300363333,1,0
3.317757000,0,0
3.330751042,1,0
3.335990042,0,0
3.348984042,1,0
3.359432292,0,0
3.372426292,1,0
3.377191750,0,0
3.394526917,1,0
3.399765333,0,0
3.405524833,1,0
3.410763875,0,0
3.417246458,1,0
3.430299208,0,0
3.443293083,1,0
3.448532083,0,0
3.453712500,1,0
3.462424583,0,0
3.469836750,1,0
3.478548750,0,0
3.485031417,1,0
3.489796292,0,0
3.497209000,1,0
3.502448083,0,0
3.515441542,1,0
3.520207167,0,0
3.530596625,1,0
3.539308625,0,0
3.545791208,1,0
3.550556792,0,0
3.563550708,1,0
3.568316125,0,0
3.581310167,1,0
3.586075583,0,0
3.591256000,1,0
3.596021583,0,0
3.601780958,1,0
3.612229208,0,0
3.625223417,1,0
3.629988792,0,0
3.633438333,1,0
3.639210417,0,0
3.646623167,1,0
3.650665625,0,0
3.655326833,1,0
3.664038875,0,0
3.674428500,1,0
3.680969708,0,0
3.693963708,1,0
3.698729167,0,0
3.705211958,1,0
3.711752958,0,0
3.716459792,1,0
3.725171792,0,0
3.730352208,1,0
3.734394625,0,0
3.739529542,1,0
3.743285750,0,0
3.766381375,1,0
3.771620292,0,0
3.775317792,1,0
3.781092542,0,0
3.785402833,1,0
3.789159000,0,0
3.792602958,1,0
3.796353500,0,0
3.799580208,1,0
3.802351583,0,0
3.817691542,1,0
3.821442250,0,0
3.825707875,1,0
3.828485125,0,0
3.830823833,1,0
3.833595292,0,0
3.836822125,1,0
3.839332333,0,0
3.843599375,1,0
3.847355583,0,0
3.850799417,1,0
3.854084875,0,0
3.857120167,1,0
3.860622625,0,0
3.862858583,1,0
3.862858708,1,1
3.866144000,0,1
3.869009125,1,1
3.871406583,0,1
3.874442125,1,1
3.874471500,1,0
3.876839458,0,0
3.879075375,1,0
3.882360833,0,0
3.884596792,1,0
3.888347292,0,0
3.890583208,1,0
3.893220042,0,0
3.897466833,1,0
3.901223000,0,0
3.904088167,1,0
3.907373542,0,0
3.909609458,1,0
3.912119750,0,0
3.916097875,1,0
3.918732167,0,0
3.921444917,1,0
3.924947417,0,0
3.927183417,1,0
3.930468792,0,0
3.932704792,1,0
3.935990167,0,0
3.939968292,1,0
3.943253833,0,0
3.946289042,1,0
3.948799333,0,0
3.951035333,1,0
3.954785917,0,0
3.958763917,1,0
3.961274167,0,0
3.964501000,1,0
3.967786458,0,0
3.970022375,1,0
3.972532667,0,0
3.973047250,1,0
3.976332750,0,0
3.978568667,1,0
3.981203000,0,0
3.983778792,1,0
3.987064125,0,0
3.989929208,1,0
3.992439500,0,0
3.996417625,1,0
3.999703125,0,0
4.001939000,1,0
4.004862708,0,0
4.008840875,1,0
4.011351083,0,0
4.013587042,1,0
4.016221458,0,0
4.029785500,1,0
4.032419750,0,0
4.034655750,1,0
4.037579417,0,0
4.039815417,1,0
4.042449625,0,0
4.044685583,1,0
4.048436083,0,0
4.051471375,1,0
4.055221917,0,0
4.057560792,1,0
4.060332250,0,0
4.062907833,1,0
4.066195750,0,0
4.070443208,1,0
4.073734333,0,0
4.076599417,1,0
4.080350000,0,0
4.082688875,1,0
4.085460208,0,0
4.088035875,1,0
4.091321333,0,0
4.093557250,1,0
4.096842792,0,0
4.099078667,1,0
4.101588958,0,0
4.105856125,1,0
4.108633625,0,0
4.111498250,1,0
4.115000750,0,0
4.118036208,1,0
4.120807417,0,0
4.123043333,1,0
4.125814833,0,0
4.128850000,1,0
4.132600542,0,0
4.135465625,1,0
4.139502375,0,0
4.143769333,1,0
4.146546417,0,0
4.149990250,1,0
4.153740792,0,0
4.156453542,1,0
4.159087833,0,0
4.162123167,1,0
4.165408583,0,0
4.168273667,1,0
4.171045042,0,0
4.173280958,1,0
4.176052375,0,0
4.178288333,1,0
4.181790833,0,0
4.184129708,1,0
4.186527167,0,0
4.188763083,1,0
4.192513625,0,0
4.196491750,1,0
4.199002208,0,0
4.201867250,1,0
4.205617625,0,0
4.208193292,1,0
4.211478833,0,0
4.215745292,1,0
4.218261333,0,0
4.222239375,1,0
4.225524833,0,0
4.228968875,1,0
4.232719167,0,0
4.247536625,1,0
4.250308000,0,0
4.252543917,1,0
4.255829375,0,0
4.258065292,1,0
4.260836750,0,0
4.263072625,1,0
4.266358083,0,0
4.268594000,1,0
4.271104292,0,0
4.273340208,1,0
4.276263958,0,0
4.280242083,1,0
4.283527500,0,0
4.285866417,1,0
4.285866500,1,1
4.288376625,0,1
4.291089458,1,1
4.293383958,0,1
4.295959667,1,1
4.295989083,1,0
4.299245208,0,0
4.303511417,1,0
4.306151417,0,0
4.309016542,1,0
4.311650792,0,0
4.315628875,1,0
4.318914417,0,0
4.321150250,1,0
4.323921792,0,0
4.327148667,1,0
4.330433958,0,0
4.333299125,1,0
4.337049542,0,0
4.339285458,1,0
4.341795750,0,0
4.344031667,1,0
4.346803083,0,0
4.349039000,1,0
4.351810375,0,0
4.356077167,1,0
4.359833375,0,0
4.363811583,1,0
4.366582875,0,0
4.368818792,1,0
4.371912792,0,0
4.374488417,1,0
4.378238917,0,0
4.382217083,1,0
4.384988583,0,0
4.387853500,1,0
4.391138958,0,0
4.395406125,1,0
4.399162292,0,0
4.403429250,1,0
4.407185500,0,0
4.411451833,1,0
4.413967792,0,0
4.417945958,1,0
4.421231375,0,0
4.423570250,1,0
4.427072708,0,0
4.430516583,1,0
4.434267167,0,0
4.436503042,1,0
4.439274417,0,0
4.443252542,1,0
4.446023917,0,0
4.448889000,1,0
4.452639500,0,0
4.468055167,1,0
4.471340417,0,0
4.475318542,1,0
4.478603958,0,0
4.481639250,1,0
4.484036792,0,0
4.486375750,1,0
4.489661125,0,0
4.492696417,1,0
4.495620250,0,0
4.499886042,1,0
4.503642292,0,0
4.506217917,1,0
4.509505042,0,0
4.511847333,1,0
4.515127708,0,0
4.517363625,1,0
4.520135042,0,0
4.522473917,1,0
4.525759375,0,0
4.530026292,1,0
4.533782417,0,0
4.536817708,1,0
4.539215208,0,0
4.543482083,1,0
4.546259208,0,0
4.548834875,1,0
4.552120250,0,0
4.556387375,1,0
4.558903333,0,0
4.562347167,1,0
4.564981458,0,0
4.568425458,1,0
4.570935750,0,0
4.573274500,1,0
4.575784792,0,0
4.578649875,1,0
4.582400375,0,0
4.584739250,1,0
4.587510667,0,0
4.590737458,1,0
4.594239958,0,0
4.596578833,1,0
4.600329375,0,0
4.604309792,1,0
4.606817750,0,0
4.610795875,1,0
4.613306167,0,0
4.615645042,1,0
4.618930500,0,0
4.622157333,1,0
4.625907833,0,0
4.629885958,1,0
4.633922708,0,0
4.636498375,1,0
4.638898875,0,0
4.643141833,1,0
4.646898042,0,0
4.651164958,1,0
4.654456083,0,0
4.657031750,1,0
4.660317208,0,0
4.664295333,1,0
4.667580958,0,0
4.670445833,1,0
4.673731333,0,0
4.677709417,1,0
4.681459917,0,0
4.696249125,1,0
4.699999583,0,0
4.702235542,1,0
4.705006875,0,0
4.708450750,1,0
4.711374500,0,0
4.715641000,1,0
4.718932167,0,0
4.721797125,1,0
4.724568542,0,0
4.727433625,1,0
4.730936083,0,0
4.733971375,1,0
4.736742750,0,0
4.739778083,1,0
4.739778167,1,1
4.742549417,0,1
4.745584750,1,1
4.748508417,0,1
4.751221208,1,1
4.751250583,1,0
4.753515917,0,0
4.755751708,1,0
4.759502208,0,0
4.761738167,1,0
4.764248458,0,0
4.768515167,1,0
4.771292250,0,0
4.774736167,1,0
4.778486583,0,0
4.781351875,1,0
4.784275417,0,0
4.787140500,1,0
4.790891000,0,0
4.794869125,1,0
4.798154583,0,0
4.802421375,1,0
4.805198458,0,0
4.809465000,1,0
4.812104917,0,0
4.814970000,1,0
4.817741458,0,0
4.820080333,1,0
4.823830792,0,0
4.827808958,1,0
4.831559417,0,0
4.834424500,1,0
4.838175042,0,0
4.841620875,1,0
4.844390250,0,0
4.847255417,1,0
4.851005875,0,0
4.854449917,1,0
4.860221125,0,0
4.863670708,1,0
4.867421250,0,0
4.871687917,1,0
4.875446875,0,0
4.878887958,1,0
4.884664167,0,0
4.887008292,1,0
4.889781583,0,0
4.892644667,1,0
4.896395375,0,0
4.899260375,1,0
4.902031667,0,0
4.905723542,1,0
4.909474083,0,0
4.913741250,1,0
4.916518292,0,0
4.932297833,1,0
4.935069167,0,0
4.938296042,1,0
4.941219708,0,0
4.944084792,1,0
4.950580625,0,0
4.954892917,1,0
4.957670000,0,0
4.961938208,1,0
4.967755000,0,0
4.970625958,1,0
4.974376292,0,0
4.978643250,1,0
4.982399375,0,0
4.987060875,1,0
4.990571542,0,0
4.994012875,1,0
4.996784250,0,0
4.999649333,1,0
5.002420708,0,0
5.005133458,1,0
5.008884042,0,0
5.013150458,1,0
5.019691792,0,0
5.022562583,1,0
5.025486417,0,0
5.030146500,1,0
5.035385333,0,0
5.040092208,1,0
5.045910292,0,0
5.050222583,1,0
5.053978792,0,0
5.058245708,1,0
5.061022750,0,0
5.065289667,1,0
5.071830875,0,0
5.076537792,1,0
5.080580333,0,0
5.083445208,1,0
5.089217792,0,0
5.092088542,1,0
5.094859958,0,0
5.098838083,1,0
5.101609417,0,0
5.105876292,1,0
5.109632458,0,0
5.113324375,1,0
5.116095750,0,0
5.119539625,1,0
5.125312333,0,0
5.129624083,1,0
5.134863083,0,0
5.139175375,1,0
5.141952458,0,0
5.146613917,1,0
5.152432083,0,0
5.155150583,1,0
5.158900958,0,0
5.162344833,1,0
5.165847292,0,0
5.168712375,1,0
5.172462917,0,0
5.175906875,1,0
5.179943583,0,0
5.184210125,1,0
5.187966500,0,0
5.192626292,1,0
5.198444542,0,0
5.215577917,1,0
5.221350625,0,0
5.225334333,1,0
5.231829958,0,0
5.236142292,1,0
5.241960458,0,0
5.246272375,1,0
5.252813458,0,0
5.256262917,1,0
5.259765458,0,0
5.262630500,1,0
5.266133000,0,0
5.269576833,1,0
5.275349583,0,0
5.280055875,1,0
5.280055958,1,1
5.283812000,0,1
5.288078958,1,1
5.292449875,0,1
5.296433708,1,1
5.296463125,1,0
5.299357583,0,0
5.302070125,1,0
5.308566083,0,0
5.311284542,1,0
5.317780375,0,0
5.321478000,1,0
5.324401708,0,0
5.328668042,1,0
5.334486167,0,0
5.338798458,1,0
5.342556083,0,0
5.345419750,1,0
5.349170250,0,0
5.352616167,1,0
5.356364625,0,0
5.361026208,1,0
5.364782333,0,0
5.369050583,1,0
5.375590333,0,0
5.379039917,1,0
5.382790542,0,0
5.385655542,1,0
5.389406000,0,0
5.393097958,1,0
5.396848417,0,0
5.400292292,1,0
5.404042792,0,0
5.406907875,1,0
5.409679250,0,0
5.413946375,1,0
5.420487542,0,0
5.423206000,1,0
5.426491458,0,0
5.430758167,1,0
5.434514417,0,0
5.439175542,1,0
5.442931667,0,0
5.445796750,1,0
5.448720458,0,0
5.451433208,1,0
5.454204583,0,0
5.458471500,1,0
5.462227708,0,0
5.466494583,1,0
5.469134792,0,0
5.472578458,1,0
5.475349875,0,0
5.480011167,1,0
5.483767417,0,0
5.506824792,1,0
5.510580875,0,0
5.514272792,1,0
5.518598125,0,0
5.521468875,1,0
5.527964917,0,0
5.531416958,1,0
5.537895167,0,0
5.543073208,1,0
5.547444083,0,0
5.551756458,1,0
5.558297083,0,0
5.562609458,1,0
5.566365625,0,0
5.570343750,1,0
5.576116042,0,0
5.580428375,1,0
5.583357792,0,0
5.587624333,1,0
5.590915458,0,0
5.594364875,1,0
5.597130708,0,0
5.599995792,1,0
5.602767167,0,0
5.605632250,1,0
5.609382792,0,0
5.613650000,1,0
5.616427000,0,0
5.620693917,1,0
5.624736333,0,0
5.629003083,1,0
5.631780125,0,0
5.635224000,1,0
5.637995542,0,0
5.642655458,1,0
5.645432500,0,0
5.648876375,1,0
5.652626958,0,0
5.656893417,1,0
5.660649625,0,0
5.665784667,1,0
5.671602792,0,0
5.675914542,1,0
5.679670792,0,0
5.682383500,1,0
5.685669000,0,0
5.688534042,1,0
5.692284542,0,0
5.695976500,1,0
5.699478917,0,0
5.702344000,1,0
5.706380750,0,0
5.709245875,1,0
5.715018292,0,0
5.719330125,1,0
5.725870750,0,0
5.731630250,1,0
5.735138417,0,0
5.738582250,1,0
5.741873417,0,0
5.745559625,1,0
5.751332583,0,0
5.754203292,1,0
5.757953792,0,0
5.760666542,1,0
5.764417250,0,0
5.767129833,1,0
5.770880542,0,0
5.787764833,1,0
5.790536208,0,0
5.795197542,1,0
5.801738875,0,0
5.806445625,1,0
5.812263208,0,0
5.815133958,1,0
5.818884458,0,0
5.822328333,1,0
5.826079042,0,0
5.830344375,1,0
5.834100583,0,0
5.838762042,1,0
5.841691500,0,0
5.845958042,1,0
5.845958125,1,1
5.848735042,0,1
5.852713208,1,1
5.857038833,0,1
5.860271375,1,1
5.860300792,1,0
5.864596917,0,0
5.868909208,1,0
5.875450417,0,0
5.878899958,1,0
5.882936708,0,0
5.887203750,1,0
5.893021833,0,0
5.895892625,1,0
5.899929375,0,0
5.906366458,1,0
5.910122708,0,0
5.912987667,1,0
5.916738208,0,0
5.921005042,1,0
5.924761167,0,0
5.928739292,1,0
5.932489792,0,0
5.937624708,1,0
5.940401750,0,0
5.943266833,1,0
5.949762667,0,0
5.954074958,1,0
5.958117375,0,0
5.963252333,1,0
5.966029375,0,0
5.969473292,1,0
5.973223667,0,0
5.978358833,1,0
5.984176917,0,0
5.987047833,1,0
5.991085875,0,0
5.993949542,1,0
5.996721042,0,0
5.999433708,1,0
6.003184208,0,0
6.007451333,1,0
6.011207625,0,0
6.015187708,1,0
6.018471125,0,0
6.021915000,1,0
6.027688083,0,0
6.031137583,1,0
6.035174292,0,0
6.038618167,1,0
6.042120625,0,0
6.044987167,1,0
6.051471917,0,0
6.055784042,1,0
6.062325250,0,0
6.079367750,1,0
6.082139125,0,0
6.086406250,1,0
6.091645292,0,0
6.094516125,1,0
6.098271833,0,0
6.101131667,1,0
6.105168583,0,0
6.109433958,1,0
6.113190167,0,0
6.116055250,1,0
6.119340750,0,0
6.122205750,1,0
6.128701417,0,0
6.134460917,1,0
6.141002083,0,0
6.144985917,1,0
6.150758458,0,0
6.153630875,1,0
6.157131708,0,0
6.161793250,1,0
6.168333958,0,0
6.171783417,1,0
6.177556417,0,0
6.180427167,1,0
6.183350833,0,0
6.188012375,1,0
6.190789375,0,0
6.195924417,1,0
6.199680583,0,0
6.204342125,1,0
6.210882750,0,0
6.215195042,1,0
6.218951250,0,0
6.221816333,1,0
6.224740083,0,0
6.229006958,1,0
6.231784042,0,0
6.236050917,1,0
6.238828000,0,0
6.242272042,1,0
6.246025000,0,0
6.248887542,1,0
6.252638000,0,0
6.256616167,1,0
6.263111458,0,0
6.266809083,1,0
6.269580458,0,0
6.272445625,1,0
6.275369417,0,0
6.280503083,1,0
6.283432458,0,0
6.286876333,1,0
6.293372167,0,0
6.297684458,1,0
6.301440708,0,0
6.305707042,1,0
6.309749500,0,0
6.314016250,1,0
6.317772458,0,0
6.322906958,1,0
6.326663125,0,0
6.329528208,1,0
6.336024042,0,0
6.338894833,1,0
6.342645333,0,0
6.346912333,1,0
6.349841708,0,0
6.366833792,1,0
6.373329917,0,0
6.377642000,1,0
6.380571417,0,0
6.384015292,1,0
6.387765792,0,0
6.392032500,1,0
6.398573708,0,0
6.402023292,1,0
6.405773750,0,0
6.408638833,1,0
6.412389542,0,0
6.415254458,1,0
6.419004958,0,0
6.422448917,1,0
6.422449000,1,1
6.428221333,0,1
6.432205125,1,1
6.434976417,0,1
6.440111625,1,1
6.440141042,1,0
6.444484375,0,0
6.447202625,1,0
6.450953083,0,0
6.453818125,1,0
6.457568667,0,0
6.461546792,1,0
6.468042792,0,0
6.471492333,1,0
6.475529083,0,0
6.479796167,1,0
6.482725500,0,0
6.487387250,1,0
6.491143375,0,0
6.494589958,1,0
6.501063833,0,0
6.505376167,1,0
6.509132333,0,0
6.513399250,1,0
6.517155458,0,0
6.522290500,1,0
6.525067542,0,0
6.529334458,1,0
6.532111542,0,0
6.536378500,1,0
6.540420875,0,0
6.544687792,1,0
6.548443917,0,0
6.551887750,1,0
6.555924500,0,0
6.560191292,1,0
6.563947417,0,0
6.568214333,1,0
6.574032583,0,0
6.578344750,1,0
6.582101000,0,0
6.584966000,1,0
6.588716542,0,0
6.594430458,1,0
6.598472875,0,0
6.601337958,1,0
6.605088500,0,0
6.607801250,1,0
6.611551750,0,0
6.614416833,1,0
6.618453583,0,0
6.622720417,1,0
6.627958958,0,0
6.632270750,1,0
6.637509250,0,0
6.655058000,1,0
6.659777875,0,0
6.664089583,1,0
6.667845792,0,0
6.670710875,1,0
6.673482375,0,0
6.677460375,1,0
6.683956125,0,0
6.687405667,1,0
6.693901500,0,0
6.697885292,1,0
6.700656667,0,0
6.705318458,1,0
6.711859500,0,0
6.716171792,1,0
6.719462917,0,0
6.723729875,1,0
6.729547417,0,0
6.734254292,1,0
6.738012917,0,0
6.742260375,1,0
6.748801583,0,0
6.752499250,1,0
6.756001750,0,0
6.758866792,1,0
6.762617250,0,0
6.765482333,1,0
6.769233000,0,0
6.773498917,1,0
6.777541292,0,0
6.780985083,1,0
6.783908833,0,0
6.788175708,1,0
6.793993833,0,0
6.798306125,1,0
6.804847333,0,0
6.809159667,1,0
6.811936750,0,0
6.816597667,1,0
6.819527125,0,0
6.825240833,1,0
6.829283250,0,0
6.831996042,1,0
6.835746542,0,0
6.839724708,1,0
6.843761458,0,0
6.848422542,1,0
6.852178750,0,0
6.854891500,1,0
6.858642042,0,0
6.862909042,1,0
6.869450375,0,0
6.873762542,1,0
6.877518750,0,0
6.882180208,1,0
6.887998458,0,0
6.891982208,1,0
6.897755167,0,0
6.902462042,1,0
6.907227458,0,0
6.910098250,1,0
6.912869625,0,0
6.916561542,1,0
6.919847083,0,0
6.924113083,1,0
6.929351542,0,0
6.933663833,1,0
6.936440875,0,0
6.954412625,1,0
6.957336292,0,0
6.961997750,1,0
6.964774792,0,0
6.968752917,1,0
6.972255458,0,0
6.976521750,1,0
6.979298792,0,0
6.982742750,1,0
6.986245125,0,0
6.989110250,1,0
6.992033958,0,0
6.994899083,1,0
6.997822750,0,0
7.002089792,1,0
7.002089875,1,1
7.005845958,0,1
7.009072792,1,1
7.012575292,0,1
7.015802125,1,1
7.015831500,1,0
7.018573500,0,0
7.022840667,1,0
7.026596875,0,0
7.029309583,1,0
7.033346333,0,0
7.037613250,1,0
7.041369458,0,0
7.045347500,1,0
7.050067708,0,0
7.054380208,1,0
7.057157250,0,0
7.060022333,1,0
7.065215292,0,0
7.069527667,1,0
7.072457000,0,0
7.077118667,1,0
7.083659875,0,0
7.086378292,1,0
7.090128833,0,0
7.094790083,1,0
7.100608208,0,0
7.104920500,1,0
7.111461708,0,0
7.115774000,1,0
7.119530250,0,0
7.122395250,1,0
7.126145792,0,0
7.129010875,1,0
7.131782250,0,0
7.135009083,1,0
7.137780458,0,0
7.142047625,1,0
7.147865708,0,0
7.152178042,1,0
7.157996125,0,0
7.162308417,1,0
7.168126542,0,0
7.171576083,1,0
7.175326583,0,0
7.178770417,1,0
7.182520958,0,0
7.186499083,1,0
7.190249625,0,0
7.193693458,1,0
7.197444583,0,0
