Time [s],Channel 0,Channel 1
16.048246250,1,0
16.755995250,0,0
16.756131500,1,0
16.756312500,0,0
16.756384750,1,0
16.756571750,0,0
16.756658000,1,0
16.756813000,0,0
16.756942250,1,0
16.757370500,0,0
16.757470000,1,0
16.780381250,0,0
16.780489250,1,0
16.780701000,0,0
16.780827500,1,0
16.785007750,0,0
16.800073000,1,0
16.808359000,0,0
16.814183250,1,0
16.822242500,0,0
16.828090250,1,0
16.835600250,0,0
16.841186500,1,0
16.848773750,0,0
16.854543000,1,0
16.862659250,0,0
16.868948000,1,0
16.878221500,0,0
16.884774500,1,0
16.893703250,0,0
16.899817750,1,0
16.908296750,0,0
16.914068000,1,0
16.921111750,0,0
16.925004250,0,1
16.925830250,1,1
16.931408000,0,1
16.935574500,1,1
16.940687750,0,1
16.944865250,1,1
16.950376750,0,1
16.955081750,1,1
16.961516750,0,1
16.966619500,1,1
16.973261000,0,1
16.978163750,1,1
16.979418500,1,0
16.984302750,0,0
16.988838250,1,0
16.994666750,0,0
16.999143000,1,0
17.005036250,0,0
17.005572500,0,1
17.009531750,1,1
17.034776750,0,1
17.039494250,1,1
17.044911500,0,1
17.049064250,1,1
17.054322750,0,1
17.058411000,1,1
17.063547250,0,1
17.067619750,1,1
17.072730000,0,1
17.076788750,1,1
17.081815500,0,1
17.085824250,1,1
17.090723500,0,1
17.094666500,1,1
17.099544750,0,1
17.103501250,1,1
17.108483000,0,1
17.112484500,1,1
17.117552000,0,1
17.121547750,1,1
17.126646500,0,1
17.130731250,0,0
17.130746000,1,0
17.136137250,0,0
17.140646250,1,0
17.147189250,0,0
17.152831500,1,0
17.161557000,0,0
17.163127250,0,1
17.168008500,1,1
17.176275000,0,1
17.182140000,1,1
17.191030250,0,1
17.197762500,1,1
17.206296750,0,1
17.211843750,1,1
17.217963250,0,1
17.222063500,1,1
17.226597500,0,1
17.230023250,1,1
17.234044750,0,1
17.237304500,1,1
17.241363000,0,1
17.244821250,1,1
17.249305250,0,1
17.253105000,1,1
17.258076000,0,1
17.262305750,1,1
17.268127000,0,1
17.273185000,1,1
17.280693500,0,1
17.286864750,1,1
17.294884000,0,1
17.300017000,1,1
17.305693750,0,1
17.309753250,1,1
17.311486500,1,0
17.314847250,0,0
17.318992000,1,0
17.324477500,0,0
17.328817250,1,0
17.334502000,0,0
17.338864000,1,0
17.363445750,0,0
17.368141000,1,0
17.373540000,0,0
17.377678750,1,0
17.382882750,0,0
17.386894500,1,0
17.391851750,0,0
17.395748250,1,0
17.400520000,0,0
17.404318000,1,0
17.408912250,0,0
17.410708500,0,1
17.412629250,1,1
17.417129500,0,1
17.420802000,1,1
17.425291000,0,1
17.428965000,1,1
17.433495500,0,1
17.437172250,1,1
17.441750750,0,1
17.445429500,1,1
17.450045750,0,1
17.453545250,0,0
17.453773500,1,0
17.458442000,0,0
17.462237250,1,0
17.466969000,0,0
17.470779250,1,0
17.475467500,0,0
17.479337750,1,0
17.484305000,0,0
17.488528750,1,0
17.494253000,0,0
17.499174500,1,0
17.506189750,0,0
17.511833500,1,0
17.519472500,0,0
17.524997750,1,0
17.532334250,0,0
17.538100250,1,0
17.547070750,0,0
17.553361000,1,0
17.561928000,0,0
17.567621500,1,0
17.574112000,0,0
17.577890250,0,1
17.578398750,1,1
17.583269750,0,1
17.586958750,1,1
17.591350000,0,1
17.595012750,1,1
17.599686250,0,1
17.603806500,1,1
17.609359750,0,1
17.614138750,1,1
17.621159500,0,1
17.626917000,1,1
17.628357750,1,0
17.635208000,0,0
17.640748500,1,0
17.647198000,0,0
17.651480750,1,0
17.656814000,0,0
17.657526250,0,1
17.661044000,1,1
17.685591250,0,1
17.690131000,1,1
17.695299750,0,1
17.699326250,1,1
17.704433250,0,1
17.708450250,1,1
17.713504500,0,1
17.717520500,1,1
17.722526250,0,1
17.726504000,1,1
17.731418500,0,1
17.735385000,1,1
17.740288000,0,1
17.744249250,1,1
17.749151000,0,1
17.753078000,1,1
17.757927000,0,1
17.761827500,1,1
17.766802750,0,1
17.770806500,1,1
17.775997750,0,1
17.780133750,0,0
17.780172750,1,0
17.785624500,0,0
17.790126750,1,0
17.796508750,0,0
17.801913500,1,0
17.810097500,0,0
17.811514500,0,1
17.816471750,1,1
17.825065250,0,1
17.831021500,1,1
17.839560000,0,1
17.846311000,1,1
17.855062250,0,1
17.860695250,1,1
17.866933750,0,1
17.871086250,1,1
17.875678000,0,1
17.879135000,1,1
17.883196750,0,1
17.886483500,1,1
17.890578750,0,1
17.894065000,1,1
17.898580500,0,1
17.902383750,1,1
17.907349250,0,1
17.911566750,1,1
17.917357000,0,1
17.922390250,1,1
17.929818750,0,1
17.935913250,1,1
17.943861500,0,1
17.948990000,1,1
17.954644500,0,1
17.958704250,1,1
17.960548500,1,0
17.963783750,0,0
17.967920500,1,0
17.973367000,0,0
17.977652250,1,0
17.983220250,0,0
17.987529750,1,0
18.011950500,0,0
18.016551250,1,0
18.021823500,0,0
18.025903250,1,0
18.031034500,0,0
18.035013750,1,0
18.039961000,0,0
18.043866000,1,0
18.048651750,0,0
18.052454750,1,0
18.057060500,0,0
18.058866750,0,1
18.060777500,1,1
18.065271000,0,1
18.068935750,1,1
18.073406000,0,1
18.077064500,1,1
18.081572000,0,1
18.085232500,1,1
18.089779750,0,1
18.093429250,1,1
18.098009500,0,1
18.101456000,0,0
18.101723750,1,0
18.106372750,0,0
18.110163250,1,0
18.114911250,0,0
18.118719500,1,0
18.123399000,0,0
18.127250500,1,0
18.132166750,0,0
18.136335000,1,0
18.141964000,0,0
18.146834750,1,0
18.153856500,0,0
18.159553750,1,0
18.167269000,0,0
18.172787000,1,0
18.180115750,0,0
18.185985750,1,0
18.194979750,0,0
18.201182750,1,0
18.209653750,0,0
18.215296000,1,0
18.221727500,0,0
18.225358000,0,1
18.225989000,1,1
18.230839250,0,1
18.234520000,1,1
18.238908750,0,1
18.242572500,1,1
18.247256750,0,1
18.251391000,1,1
18.256971750,0,1
18.261758000,1,1
18.268815000,0,1
18.274624250,1,1
18.275941500,1,0
18.283082250,0,0
18.288708000,1,0
18.295248000,0,0
18.299557500,1,0
18.304894250,0,0
18.305573750,0,1
18.309123250,1,1
18.333942500,0,1
18.338501750,1,1
18.343673000,0,1
18.347685500,1,1
18.352757500,0,1
18.356748000,1,1
18.361774250,0,1
18.365778000,1,1
18.370790250,0,1
18.374796250,1,1
18.379726750,0,1
18.383684750,1,1
18.388569250,0,1
18.392516750,1,1
18.397418750,0,1
18.401380500,1,1
18.406323250,0,1
18.410270250,1,1
18.415256750,0,1
18.419222750,1,1
18.424376750,0,1
18.428594750,1,1
18.428614500,1,0
18.434331000,0,0
18.439225500,1,0
18.446887750,0,0
18.453545750,1,0
18.464155000,0,0
18.465926000,0,1
18.471297500,1,1
18.482781500,0,1
18.493100500,1,1
18.524725500,0,1
18.545089250,1,1
18.574181500,0,1
18.585957250,1,1
18.593841500,0,1
18.597932500,1,1
18.601806750,0,1
18.604531250,1,1
18.607396000,0,1
18.609656500,1,1
18.612206000,0,1
18.614395750,1,1
18.616955750,0,1
18.619202250,1,1
18.621812250,0,1
18.624090500,1,1
18.626739500,0,1
18.629091250,1,1
18.631835000,0,1
18.634278500,1,1
18.637131250,0,1
18.639647500,1,1
18.642655000,0,1
18.645275500,1,1
18.646423000,1,0
18.648433500,0,0
18.651183000,1,0
18.654655000,0,0
18.657689250,1,0
18.661629750,0,0
18.665071250,1,0
18.689348000,0,0
18.694148250,1,0
18.699351750,0,0
18.703174500,1,0
18.707824250,0,0
18.711545000,1,0
18.716225500,0,0
18.720025250,1,0
18.724737500,0,0
18.728540500,1,0
18.733185250,0,0
18.735083750,0,1
18.736935500,1,1
18.741460500,0,1
18.745128500,1,1
18.749566250,0,1
18.753183500,1,1
18.757598500,0,1
18.761169250,1,1
18.765569500,0,1
18.769105000,1,1
18.773486750,0,1
18.776837250,0,0
18.777048250,1,0
18.781477750,0,0
18.785109500,1,0
18.789670250,0,0
18.793413000,1,0
18.798000250,0,0
18.801762500,1,0
18.806486000,0,0
18.810487750,1,0
18.815837000,0,0
18.820547000,1,0
18.827600500,0,0
18.833703000,1,0
18.842610750,0,0
18.848817250,1,0
18.857570500,0,0
18.864926750,1,0
18.879389000,0,0
18.889894000,1,0
18.907631750,0,0
18.916116750,1,0
18.923788750,0,0
18.927303250,0,1
18.927790250,1,1
18.931711000,0,1
18.934497250,1,1
18.937418250,0,1
18.939786750,1,1
18.942414000,0,1
18.944726000,1,1
18.947427750,0,1
18.949816500,1,1
18.952599000,0,1
18.955017500,1,1
18.955454750,1,0
18.957890250,0,0
18.960374000,1,0
18.963354000,0,0
18.965898000,1,0
18.968964750,0,0
18.969417750,0,1
18.971588500,1,1
18.986624250,0,1
18.990047000,1,1
18.993775750,0,1
18.996941750,1,1
19.000941250,0,1
19.004305000,1,1
19.008551000,0,1
19.012120000,1,1
19.016665000,0,1
19.020489500,1,1
19.025376000,0,1
19.029398500,1,1
19.034316000,0,1
19.038230500,1,1
19.042989750,0,1
19.046782750,1,1
19.051408750,0,1
19.055127750,1,1
19.059787250,0,1
19.063565500,1,1
19.068456250,0,1
19.072409500,0,0
19.072504000,1,0
19.077929000,0,0
19.082470250,1,0
19.088918250,0,0
19.094211250,1,0
19.101488500,0,0
19.102884000,0,1
19.106907500,1,1
19.113743500,0,1
19.118934750,1,1
19.126271750,0,1
19.132143000,1,1
19.139654000,0,1
19.144847500,1,1
19.150683250,0,1
19.154666000,1,1
19.159050250,0,1
19.162373000,1,1
19.166241000,0,1
19.169378750,1,1
19.173237750,0,1
19.176527750,1,1
19.180735750,0,1
19.184354750,1,1
19.189012750,0,1
19.192983500,1,1
19.198290250,0,1
19.202924750,1,1
19.209570750,0,1
19.215271000,1,1
19.223368000,0,1
19.228945250,1,1
19.235206500,0,1
19.239410500,1,1
19.241254500,1,0
19.244375250,0,0
19.248336500,1,0
19.253531500,0,0
19.257714000,1,0
19.263201250,0,0
19.267552750,1,0
19.291714500,0,0
19.296391250,1,0
19.301771750,0,0
19.305896000,1,0
19.311084250,0,0
19.315088000,1,0
19.320039750,0,0
19.323934000,1,0
19.328700750,0,0
19.332485250,1,0
19.337059750,0,0
19.338961500,0,1
19.340757750,1,1
19.345226750,0,1
19.348877500,1,1
19.353329750,0,1
19.356978500,1,1
19.361468000,0,1
19.365121250,1,1
19.369679750,0,1
19.373341750,1,1
19.377936750,0,1
19.381500750,0,0
19.381657000,1,0
19.386307250,0,0
19.390082750,1,0
19.394814750,0,0
19.398630750,1,0
19.403330750,0,0
19.407214000,1,0
19.412187750,0,0
19.416408500,1,0
19.422125250,0,0
19.427035000,1,0
19.434031250,0,0
19.439659500,1,0
19.447271250,0,0
19.452783500,1,0
19.460104000,0,0
19.465896750,1,0
19.474843000,0,0
19.481119500,1,0
19.489750750,0,0
19.495466250,1,0
19.501971500,0,0
19.505731000,0,1
19.506261250,1,1
19.511146000,0,1
19.514845250,1,1
19.519261000,0,1
19.522941500,1,1
19.527647500,0,1
19.531788500,1,1
19.537368250,0,1
19.542154500,1,1
19.549211750,0,1
19.554977500,1,1
19.556375500,1,0
19.563235000,0,0
19.568750250,1,0
19.575165500,0,0
19.579448750,1,0
19.584782500,0,0
19.585450750,0,1
19.589018500,1,1
19.613572500,0,1
19.618105750,1,1
19.623272000,0,1
19.627302500,1,1
19.632398000,0,1
19.636404250,1,1
19.641449000,0,1
19.645457250,1,1
19.650440000,0,1
19.654419250,1,1
19.659335500,0,1
19.663301500,1,1
19.668206000,0,1
19.672169500,1,1
19.677051000,0,1
19.680962500,1,1
19.685815500,0,1
19.689713750,1,1
19.694707500,0,1
19.698734000,1,1
19.703940000,0,1
19.708052000,0,0
19.708111500,1,0
19.713586750,0,0
19.718117750,1,0
19.724599750,0,0
19.730096750,1,0
19.738427000,0,0
19.740000500,0,1
19.744825500,1,1
19.753376000,0,1
19.759392250,1,1
19.768315750,0,1
19.775164000,1,1
19.783990750,0,1
19.789724750,1,1
19.796088750,0,1
19.800300000,1,1
19.804965500,0,1
19.808468250,1,1
19.812594500,0,1
19.815932750,1,1
19.820109000,0,1
19.823659750,1,1
19.828275250,0,1
19.832147000,1,1
19.837237000,0,1
19.841546000,1,1
19.847517000,0,1
19.852666750,1,1
19.860246500,0,1
19.866356500,1,1
19.874116750,0,1
19.879127500,1,1
19.884732500,0,1
19.888829500,1,1
19.890593250,1,0
19.894026500,0,0
19.898240000,1,0
19.903792500,0,0
19.908126000,1,0
19.913679000,0,0
19.917968250,1,0
19.942543750,0,0
19.947138250,1,0
19.952411750,0,0
19.956493750,1,0
19.961629000,0,0
19.965620250,1,0
19.970586000,0,0
19.974504750,1,0
19.979314000,0,0
19.983129250,1,0
19.987749000,0,0
19.989583500,0,1
19.991478250,1,1
19.995989750,0,1
19.999668750,1,1
20.004164500,0,1
20.007842000,1,1
20.012374000,0,1
20.016048000,1,1
20.020621000,0,1
20.024290750,1,1
20.028891500,0,1
20.032482750,0,0
20.032613250,1,0
20.037280500,0,0
20.041072000,1,0
20.045828250,0,0
20.049655750,1,0
20.054364750,0,0
20.058244500,1,0
20.063221000,0,0
20.067435000,1,0
20.073152750,0,0
20.078086250,1,0
20.085162500,0,0
20.090851500,1,0
20.098506500,0,0
20.104018750,1,0
20.111449250,0,0
20.117452750,1,0
20.126653250,0,0
20.132907250,1,0
20.141655750,0,0
20.147439250,1,0
20.154033750,0,0
20.157769750,0,1
20.158361250,1,1
20.163291000,0,1
20.167022250,1,1
20.171487750,0,1
20.175214000,1,1
20.180010000,0,1
20.184226250,1,1
20.189927750,0,1
20.194813500,1,1
20.202037250,0,1
20.207860250,1,1
20.209270750,1,0
20.216158250,0,0
20.221657250,1,0
20.228102500,0,0
20.232428750,1,0
20.237805250,0,0
20.238590250,0,1
20.242082500,1,1
20.267075750,0,1
20.271660000,1,1
20.276883500,0,1
20.280929500,1,1
20.286049000,0,1
20.290064250,1,1
20.295113000,0,1
20.299139750,1,1
20.304161500,0,1
20.308161250,1,1
20.313096250,0,1
20.317060000,1,1
20.321940500,0,1
20.325901000,1,1
20.330823500,0,1
20.334796250,1,1
20.339746750,0,1
20.343696750,1,1
20.348664000,0,1
20.352641000,1,1
20.357825250,0,1
20.362052750,1,1
20.362134250,1,0
20.367811000,0,0
20.372734750,1,0
20.380473000,0,0
20.387202500,1,0
20.397843500,0,0
20.399463250,0,1
20.405013750,1,1
20.416891000,0,1
20.427739750,1,1
20.541014500,0,1
20.555705250,1,1
20.563679500,0,1
20.567836500,1,1
20.571783250,0,1
20.574560250,1,1
20.577499000,0,1
20.579819500,1,1
20.582456750,0,1
20.584727500,1,1
20.587407250,0,1
20.589743750,1,1
20.592459500,0,1
20.594832250,1,1
20.597608250,0,1
20.600061000,1,1
20.602934750,0,1
20.605477750,1,1
20.608465750,0,1
20.611093750,1,1
20.614252250,0,1
20.616997500,1,1
20.618171000,1,0
20.620361750,0,0
20.623312500,1,0
20.627098750,0,0
20.630399500,1,0
20.634782250,0,0
20.638594500,1,0
20.664871750,0,0
20.669467500,1,0
20.674462250,0,0
20.678270750,1,0
20.683096000,0,0
20.686964000,1,0
20.691840000,0,0
20.695731000,1,0
20.700538750,0,0
20.704378750,1,0
20.709049250,0,0
20.710894250,0,1
20.712811750,1,1
20.717349500,0,1
20.721025000,1,1
20.725469250,0,1
20.729084250,1,1
20.733498750,0,1
20.737079000,1,1
20.741497000,0,1
20.745050750,1,1
20.749474750,0,1
20.752841500,0,0
20.753071750,1,0
20.757560250,0,0
20.761245000,1,0
20.765900750,0,0
20.769730500,1,0
20.774480750,0,0
20.778361250,1,0
20.783282000,0,0
20.787427000,1,0
20.792995500,0,0
20.797853750,1,0
20.805056500,0,0
20.811165500,1,0
20.820022500,0,0
20.826308000,1,0
20.835698000,0,0
20.843642500,1,0
20.860983500,0,0
20.873827250,1,0
20.896025750,0,0
20.906193250,1,0
20.914295000,0,0
20.917889500,0,1
20.918446250,1,1
20.922422500,0,1
20.925235250,1,1
20.928180500,0,1
20.930561000,1,1
20.933209000,0,1
20.935538500,1,1
20.938260500,0,1
20.940662000,1,1
20.943458250,0,1
20.945888000,1,1
20.946352250,1,0
20.948775250,0,0
20.951268750,1,0
20.954263250,0,0
20.956816750,1,0
20.959895500,0,0
20.960447000,0,1
20.962526750,1,1
20.977619250,0,1
20.981056750,1,1
20.984801250,0,1
20.987979250,1,1
20.991986500,0,1
20.995354000,1,1
20.999602000,0,1
21.003178000,1,1
21.007729750,0,1
21.011564250,1,1
21.016459250,0,1
21.020526250,1,1
21.025536750,0,1
21.029496250,1,1
21.034302250,0,1
21.038120750,1,1
21.042768250,0,1
21.046500750,1,1
21.051177000,0,1
21.054955500,1,1
21.059858500,0,1
21.063921750,1,1
21.063973250,1,0
21.069386750,0,0
21.073980500,1,0
21.080539750,0,0
21.085930000,1,0
21.093334750,0,0
21.094970000,0,1
21.098786750,1,1
21.105680000,0,1
21.110934750,1,1
21.118486500,0,1
21.124450000,1,1
21.132034500,0,1
21.137278000,1,1
21.143189250,0,1
21.147222000,1,1
21.151676250,0,1
21.155049000,1,1
21.158989500,0,1
21.162183500,1,1
21.166136000,0,1
21.169501750,1,1
21.173827500,0,1
21.177512000,1,1
21.182293000,0,1
21.186367500,1,1
21.191868750,0,1
21.196669500,1,1
21.203602750,0,1
21.209478250,1,1
21.217576000,0,1
21.222994750,1,1
21.229026500,0,1
21.233185750,1,1
21.235020500,1,0
21.238220500,0,0
21.242280000,1,0
21.247643250,0,0
21.251925500,1,0
21.257553000,0,0
21.261919250,1,0
21.286414500,0,0
21.291122500,1,0
21.296543250,0,0
21.300697500,1,0
21.305917250,0,0
21.309937000,1,0
21.314907750,0,0
21.318808750,1,0
21.323586000,0,0
21.327375500,1,0
21.331961500,0,0
21.333870250,0,1
21.335664750,1,1
21.340148000,0,1
21.343813000,1,1
21.348283250,0,1
21.351941750,1,1
21.356457500,0,1
21.360128750,1,1
21.364716000,0,1
21.368401750,1,1
21.373021250,0,1
21.376630250,0,0
21.376755500,1,0
21.381429750,0,0
21.385220250,1,0
21.389979750,0,0
21.393831500,1,0
21.398598750,0,0
21.402519000,1,0
21.407561000,0,0
21.411822750,1,0
21.417592250,0,0
21.422521000,1,0
21.429507250,0,0
21.435125000,1,0
21.442783750,0,0
21.448366250,1,0
21.455847500,0,0
21.461715000,1,0
21.470862500,0,0
21.477320750,1,0
21.486185250,0,0
21.491992750,1,0
21.498628250,0,0
21.502397250,0,1
21.502987750,1,1
21.507971000,0,1
21.511740000,1,1
21.516263000,0,1
21.520034750,1,1
21.524906250,0,1
21.529190000,1,1
21.535011750,0,1
21.539994000,1,1
21.547435750,0,1
21.553373750,1,1
21.554600750,1,0
21.561651000,0,0
21.567029500,1,0
21.573267250,0,0
21.577564000,1,0
21.583044500,0,0
21.583659000,0,1
21.587421500,1,1
21.612430500,0,1
21.617005250,1,1
21.622242000,0,1
21.626315250,1,1
21.631492500,0,1
21.635553750,1,1
21.640674000,0,1
21.644736500,1,1
21.649804000,0,1
21.653834500,1,1
21.658832000,0,1
21.662860250,1,1
21.667846500,0,1
21.671865250,1,1
21.676814750,0,1
21.680761500,1,1
21.685670750,0,1
21.689627750,1,1
21.694712000,0,1
21.698793000,1,1
21.704081000,0,1
21.708227500,0,0
21.708299500,1,0
21.713855000,0,0
21.718461250,1,0
21.725090750,0,0
21.730703250,1,0
21.739273750,0,0
21.741035500,0,1
21.745763000,1,1
21.754753500,0,1
21.762484750,1,1
28.405760000,1,1
