;$FILEVERSION=1.1
;$STARTTIME=46248.025908206
;
;   Start time: 14.08.2026 00:37:18.469.0
;   Generated by PCAN-View v6.0.1.1047
;
;   Message Number
;   |         Time Offset (ms)
;   |         |        Type
;   |         |        |        ID (hex)
;   |         |        |        |     Data Length
;   |         |        |        |     |   Data Bytes (hex) ...
;   |         |        |        |     |   |
;---+--   ----+----  --+--  ----+---  +  -+ -- -- -- -- -- -- --
     1)      8991.8  Rx         01F6  8  00 00 00 00 00 00 00 00 
     2)      8992.1  Rx         05DA  8  28 00 00 00 00 00 00 00 
     3)      8992.3  Rx         036E  4  00 00 00 00 
     4)      8992.4  Rx         03A5  3  00 00 00 
     5)      8992.6  Rx         0511  7  00 00 00 00 00 00 00 
     6)      8992.8  Rx         06FD  4  00 00 00 00 
     7)      8993.1  Rx         02C6  6  00 00 00 40 00 00 
     8)      8993.3  Rx         0648  8  00 00 00 00 00 00 00 00 
     9)      8993.5  Rx         041A  8  00 00 00 00 00 00 00 00 
    10)      8993.7  Rx         05E2  2  00 00 
    11)      8993.9  Rx         066A  8  00 00 00 01 01 00 00 00 
    12)      8994.2  Rx         0189  8  32 03 20 32 00 B4 00 00 
    13)      8994.4  Rx         0186  7  00 00 32 03 20 00 28 
    14)      8994.6  Rx         018A  6  32 00 00 07 12 00 
    15)      9250.9  Rx         01F6  8  00 00 00 00 00 00 00 00 
    16)      9251.1  Rx         05DA  8  28 00 00 00 00 00 00 00 
    17)      9251.3  Rx         036E  4  00 00 00 00 
    18)      9251.4  Rx         03A5  3  00 00 00 
    19)      9251.7  Rx         0511  7  00 00 00 00 00 00 00 
    20)      9251.8  Rx         06FD  4  00 00 00 00 
    21)      9252.0  Rx         02C6  6  00 00 00 40 00 00 
    22)      9252.3  Rx         0648  8  00 00 00 00 00 00 00 00 
    23)      9252.6  Rx         041A  8  00 00 00 00 00 00 00 00 
    24)      9252.7  Rx         05E2  2  00 00 
    25)      9252.9  Rx         066A  8  00 00 00 01 01 00 00 00 
    26)      9253.2  Rx         0189  8  32 03 20 32 00 B4 00 00 
    27)      9253.4  Rx         0186  7  00 00 32 03 20 00 28 
    28)      9253.6  Rx         018A  6  32 00 00 07 12 00 
    29)      9253.8  Rx         0522  8  00 00 00 00 00 00 00 00 
    30)      9254.1  Rx         0217  8  00 00 00 00 00 00 00 88 
    31)      9254.3  Rx         065C  3  50 00 00 
    32)      9254.4  Rx         041D  4  00 00 00 00 
    33)      9254.6  Rx         02A9  1  00 
    34)      9261.1  Rx         01F6  8  00 00 00 00 00 00 00 00 
    35)      9261.3  Rx         0189  8  32 03 20 32 00 B4 00 00 
    36)      9261.6  Rx         0186  7  00 00 32 03 20 00 28 
    37)      9261.8  Rx         018A  6  32 00 00 07 08 00 
    38)      9270.9  Rx         01F6  8  00 00 00 00 00 00 00 00 
    39)      9271.1  Rx         02C6  6  00 00 00 40 00 00 
    40)      9271.4  Rx         0189  8  32 03 20 32 00 B4 00 00 
    41)      9271.6  Rx         0186  7  00 00 32 03 20 00 28 
    42)      9271.8  Rx         018A  6  32 00 00 07 02 00 
    43)      9272.0  Rx         0217  8  00 00 70 00 00 00 00 88 
    44)      9272.1  Rx         02A9  1  00 
    45)      9281.2  Rx         01F6  8  00 00 00 00 00 00 00 00 
    46)      9281.4  Rx         0189  8  32 03 20 32 00 B4 00 00 
    47)      9281.7  Rx         0186  7  00 00 32 03 20 00 28 
    48)      9281.9  Rx         018A  6  32 00 00 07 00 00 
    49)      9291.0  Rx         01F6  8  00 00 00 00 00 00 00 00 
    50)      9291.2  Rx         02C6  6  00 00 00 40 00 00 
    51)      9291.4  Rx         0189  8  32 03 20 32 00 B4 00 00 
    52)      9291.6  Rx         0186  7  00 00 32 03 20 00 28 
    53)      9291.9  Rx         018A  6  32 00 00 07 00 00 
    54)      9292.1  Rx         0217  8  00 00 70 00 00 00 00 88 
    55)      9292.2  Rx         02A9  1  00 
    56)      9301.2  Rx         01F6  8  00 00 00 00 00 00 00 00 
    57)      9301.5  Rx         0189  8  32 03 20 32 00 B4 00 00 
    58)      9301.7  Rx         0186  7  00 00 32 03 20 00 28 
    59)      9301.9  Rx         018A  6  32 00 00 06 FE 00 
    60)      9311.0  Rx         01F6  8  00 00 00 00 00 00 00 00 
    61)      9311.2  Rx         02C6  6  00 00 00 40 00 00 
    62)      9311.4  Rx         0189  8  32 03 20 32 00 B4 00 00 
    63)      9311.7  Rx         0186  7  00 00 32 03 20 00 28 
    64)      9311.9  Rx         018A  6  32 00 00 06 FE 00 
    65)      9312.1  Rx         0217  8  00 00 70 00 00 00 00 88 
    66)      9312.2  Rx         02A9  1  00 
    67)      9321.3  Rx         01F6  8  00 00 00 00 00 00 00 00 
    68)      9321.6  Rx         0189  8  32 03 20 32 00 B4 00 00 
    69)      9321.8  Rx         0186  7  00 00 32 03 20 00 28 
    70)      9322.0  Rx         018A  6  32 00 00 06 FE 00 
    71)      9331.0  Rx         01F6  8  00 00 00 00 00 00 00 00 
    72)      9331.2  Rx         02C6  6  00 00 00 40 00 00 
    73)      9331.5  Rx         0189  8  32 03 20 32 00 B4 00 00 
    74)      9331.7  Rx         0186  7  00 00 32 03 20 00 28 
    75)      9331.9  Rx         018A  6  32 00 00 06 FE 00 
    76)      9332.2  Rx         0217  8  00 00 70 00 00 00 00 88 
    77)      9332.3  Rx         02A9  1  F4 
    78)      9341.3  Rx         01F6  8  00 00 00 18 00 00 00 00 
    79)      9341.6  Rx         0189  8  32 03 20 32 00 B4 00 00 
    80)      9341.8  Rx         0186  7  00 00 32 03 20 00 28 
    81)      9342.0  Rx         018A  6  32 00 00 06 FE 00 
    82)      9351.1  Rx         01F6  8  00 00 00 18 00 00 00 00 
    83)      9351.3  Rx         05DA  8  41 A2 00 00 BA FF FF 00 
    84)      9351.5  Rx         036E  4  09 99 09 99 
    85)      9351.6  Rx         03A5  3  00 00 00 
    86)      9351.8  Rx         0511  7  00 00 00 00 00 00 00 
    87)      9352.1  Rx         06FD  4  00 00 99 20 
    88)      9352.2  Rx         02C6  6  00 00 00 40 00 00 
    89)      9352.5  Rx         0648  8  C3 FF F0 00 00 7F FE 18 
    90)      9352.7  Rx         041A  8  00 03 00 00 00 00 00 00 
    91)      9353.0  Rx         066A  8  08 FF 00 01 01 C0 00 00 
    92)      9353.2  Rx         0189  8  32 03 20 32 00 B4 00 00 
    93)      9353.5  Rx         0186  7  00 00 32 03 20 00 28 
    94)      9353.7  Rx         018A  6  32 00 00 06 FE 00 
    95)      9353.9  Rx         0522  8  00 00 00 00 00 00 00 00 
    96)      9354.1  Rx         0217  8  00 00 70 00 00 00 00 88 
    97)      9354.3  Rx         065C  3  92 FF 00 
    98)      9354.5  Rx         041D  4  48 FE FF 00 
    99)      9354.6  Rx         02A9  1  F4 
   100)      9361.4  Rx         01F6  8  00 00 00 18 00 00 00 00 
   101)      9361.6  Rx         0189  8  32 03 20 32 00 B4 00 00 
   102)      9361.8  Rx         0186  7  00 00 32 03 20 00 28 
   103)      9362.0  Rx         018A  6  32 00 00 06 FE 00 
   104)      9371.1  Rx         01F6  8  00 00 00 18 00 00 00 00 
   105)      9371.3  Rx         02C6  6  00 00 00 40 00 00 
   106)      9371.6  Rx         0189  8  32 03 20 32 00 B4 00 00 
   107)      9371.8  Rx         0186  7  00 00 32 03 20 00 28 
   108)      9372.0  Rx         018A  6  32 00 00 06 FE 00 
   109)      9372.3  Rx         0217  8  00 00 70 00 00 00 00 88 
   110)      9372.4  Rx         02A9  1  F4 
   111)      9381.4  Rx         01F6  8  00 00 00 18 00 00 00 00 
   112)      9381.7  Rx         0189  8  32 03 20 32 00 B4 00 00 
   113)      9381.9  Rx         0186  7  00 00 32 03 20 00 28 
   114)      9382.1  Rx         018A  6  32 00 00 06 FE 00 
   115)      9391.2  Rx         01F6  8  00 00 00 18 00 00 00 00 
   116)      9391.4  Rx         02C6  6  00 00 00 40 00 00 
   117)      9391.6  Rx         0189  8  32 03 20 32 00 B4 00 00 
   118)      9391.9  Rx         0186  7  00 00 32 03 20 00 28 
   119)      9392.1  Rx         018A  6  32 00 00 06 FE 00 
   120)      9392.3  Rx         0217  8  00 00 70 00 00 00 00 88 
   121)      9392.4  Rx         02A9  1  F4 
   122)      9401.5  Rx         01F6  8  00 00 00 18 00 00 00 00 
   123)      9401.7  Rx         0189  8  32 03 20 32 00 B4 00 00 
   124)      9401.9  Rx         0186  7  00 00 32 03 20 00 28 
   125)      9402.1  Rx         018A  6  32 00 00 06 FE 00 
   126)      9411.2  Rx         01F6  8  00 00 00 18 00 00 00 00 
   127)      9411.4  Rx         02C6  6  00 00 00 40 00 00 
   128)      9411.7  Rx         0189  8  32 03 20 32 00 B4 00 00 
   129)      9411.9  Rx         0186  7  00 00 32 03 20 00 28 
   130)      9412.1  Rx         018A  6  32 00 00 06 FE 00 
   131)      9412.3  Rx         0217  8  00 00 70 00 00 00 00 88 
   132)      9412.5  Rx         02A9  1  F4 
   133)      9421.6  Rx         01F6  8  00 00 00 18 00 00 00 00 
   134)      9421.8  Rx         0189  8  32 03 20 32 00 B4 00 00 
   135)      9422.1  Rx         0186  7  00 00 32 03 20 00 28 
   136)      9422.2  Rx         018A  6  32 00 00 06 FE 00 
   137)      9431.2  Rx         01F6  8  00 00 00 18 00 00 00 00 
   138)      9431.5  Rx         02C6  6  00 00 00 40 00 00 
   139)      9431.7  Rx         0189  8  32 03 20 32 00 B4 00 00 
   140)      9431.9  Rx         0186  7  00 00 32 03 20 00 28 
   141)      9432.1  Rx         018A  6  32 00 00 06 FE 00 
   142)      9432.4  Rx         0217  8  00 00 70 00 00 00 00 88 
   143)      9432.5  Rx         02A9  1  F4 
   144)      9441.5  Rx         01F6  8  00 00 40 3A 00 00 00 00 
   145)      9441.8  Rx         0189  8  32 03 20 32 00 B4 00 00 
   146)      9442.0  Rx         0186  7  00 00 32 03 20 00 28 
   147)      9442.2  Rx         018A  6  32 00 00 06 FE 00 
   148)      9451.3  Rx         01F6  8  00 00 40 3A 00 00 00 00 
   149)      9451.6  Rx         05DA  8  41 A2 00 00 BA FF FF 00 
   150)      9451.7  Rx         036E  4  09 99 09 99 
   151)      9451.9  Rx         03A5  3  00 00 00 
   152)      9452.1  Rx         0511  7  00 00 00 00 00 00 00 
   153)      9452.3  Rx         06FD  4  00 00 99 20 
   154)      9452.5  Rx         02C6  6  00 00 00 40 00 00 
   155)      9452.7  Rx         0648  8  C3 FF F0 00 00 7F FE 18 
   156)      9453.0  Rx         041A  8  00 03 00 00 00 00 00 00 
   157)      9453.2  Rx         066A  8  08 FF 00 01 01 C0 00 00 
   158)      9453.4  Rx         0189  8  32 03 20 32 00 B4 00 00 
   159)      9453.7  Rx         0186  7  00 00 32 03 20 00 28 
   160)      9453.9  Rx         018A  6  32 00 00 06 FE 00 
   161)      9454.2  Rx         0522  8  00 00 00 00 00 00 00 00 
   162)      9454.4  Rx         0217  8  00 00 70 00 00 00 00 88 
   163)      9454.5  Rx         065C  3  92 FF 00 
   164)      9454.7  Rx         041D  4  48 FE FF 00 
   165)      9454.8  Rx         02A9  1  F4 
   166)      9461.6  Rx         01F6  8  00 00 40 3A 00 00 00 00 
   167)      9461.8  Rx         0189  8  32 03 20 32 00 B4 00 00 
   168)      9462.0  Rx         0186  7  00 00 32 03 20 00 28 
   169)      9462.3  Rx         018A  6  32 00 00 06 FE 00 
   170)      9471.4  Rx         01F6  8  00 00 40 3A 00 00 00 00 
   171)      9471.6  Rx         02C6  6  00 00 00 40 00 00 
   172)      9471.8  Rx         0189  8  32 03 20 32 00 B4 00 00 
   173)      9472.0  Rx         0186  7  00 00 32 03 20 00 28 
   174)      9472.2  Rx         018A  6  32 00 00 06 FE 00 
   175)      9472.5  Rx         0217  8  00 00 70 00 00 00 00 88 
   176)      9472.6  Rx         02A9  1  F4 
   177)      9481.6  Rx         01F6  8  00 00 40 3A 00 00 00 00 
   178)      9481.8  Rx         0189  8  32 03 20 32 00 B4 00 00 
   179)      9482.1  Rx         0186  7  00 00 32 03 20 00 28 
   180)      9482.3  Rx         018A  6  32 00 00 06 FE 00 
   181)      9491.4  Rx         01F6  8  00 00 40 3A 00 00 00 00 
   182)      9491.6  Rx         02C6  6  00 00 00 40 00 00 
   183)      9491.8  Rx         0189  8  32 03 20 32 00 B4 00 00 
   184)      9492.1  Rx         0186  7  00 00 32 03 20 00 28 
   185)      9492.3  Rx         018A  6  32 00 00 06 FE 00 
   186)      9492.5  Rx         0217  8  00 00 70 00 00 00 00 88 
   187)      9492.6  Rx         02A9  1  F4 
   188)      9501.7  Rx         01F6  8  00 00 40 3A 00 00 00 00 
   189)      9501.9  Rx         0189  8  32 03 20 32 00 B4 00 00 
   190)      9502.1  Rx         0186  7  00 00 32 03 20 00 28 
   191)      9502.3  Rx         018A  6  32 00 00 06 FE 00 
   192)      9511.5  Rx         01F6  8  00 00 40 3A 00 00 00 00 
   193)      9511.7  Rx         02C6  6  00 00 00 40 00 00 
   194)      9511.9  Rx         0189  8  32 03 20 32 00 B4 00 00 
   195)      9512.1  Rx         0186  7  00 00 32 03 20 00 28 
   196)      9512.3  Rx         018A  6  32 00 00 06 FE 00 
   197)      9512.6  Rx         0217  8  00 00 70 00 00 00 00 88 
   198)      9512.7  Rx         02A9  1  F4 
   199)      9521.7  Rx         01F6  8  00 00 40 3A 00 00 00 00 
   200)      9522.0  Rx         0189  8  32 03 20 32 00 B4 00 00 
   201)      9522.3  Rx         0186  7  00 00 32 03 20 00 28 
   202)      9522.4  Rx         018A  6  32 00 00 06 FE 00 
   203)      9531.5  Rx         01F6  8  00 00 40 3A 00 00 00 00 
   204)      9531.7  Rx         02C6  6  00 00 00 40 00 00 
   205)      9531.9  Rx         0189  8  32 03 20 32 00 B4 00 00 
   206)      9532.2  Rx         0186  7  00 00 32 03 20 00 28 
   207)      9532.4  Rx         018A  6  32 00 00 06 FE 00 
   208)      9532.6  Rx         0217  8  00 00 70 00 00 00 00 88 
   209)      9532.7  Rx         02A9  1  F4 
   210)      9541.7  Rx         01F6  8  00 00 40 59 00 00 00 00 
   211)      9542.0  Rx         0189  8  32 03 20 32 00 B4 00 00 
   212)      9542.2  Rx         0186  7  00 00 32 03 20 00 28 
   213)      9542.4  Rx         018A  6  32 00 00 06 FE 00 
   214)      9551.5  Rx         01F6  8  00 00 40 59 00 00 00 00 
   215)      9551.8  Rx         05DA  8  41 89 00 00 BA FF FF 00 
   216)      9551.9  Rx         036E  4  09 99 09 99 
   217)      9552.1  Rx         03A5  3  00 00 00 
   218)      9552.3  Rx         0511  7  00 00 00 00 00 00 00 
   219)      9552.5  Rx         06FD  4  00 00 99 20 
   220)      9552.7  Rx         02C6  6  00 00 00 40 00 00 
   221)      9553.0  Rx         0648  8  C3 FF F0 00 00 7F FE 18 
   222)      9553.2  Rx         041A  8  00 03 00 00 00 00 00 00 
   223)      9553.4  Rx         066A  8  08 FF 00 01 01 C0 00 00 
   224)      9553.7  Rx         0189  8  32 03 20 32 00 B4 00 00 
   225)      9553.9  Rx         0186  7  00 00 32 03 20 00 28 
   226)      9554.1  Rx         018A  6  32 00 00 06 FE 00 
   227)      9554.4  Rx         0522  8  00 00 00 00 00 00 00 00 
   228)      9554.6  Rx         0217  8  00 00 70 00 00 00 00 88 
   229)      9554.8  Rx         065C  3  92 FF 00 
   230)      9554.9  Rx         041D  4  48 FE FF 00 
   231)      9555.1  Rx         02A9  1  F4 
   232)      9561.8  Rx         01F6  8  00 00 40 59 00 00 00 00 
   233)      9562.1  Rx         0189  8  32 03 20 32 00 B4 00 00 
   234)      9562.3  Rx         0186  7  00 00 32 03 20 00 28 
   235)      9562.5  Rx         018A  6  32 00 00 06 FE 00 
   236)      9571.6  Rx         01F6  8  00 00 40 59 00 00 00 00 
   237)      9571.8  Rx         02C6  6  00 00 00 40 00 00 
   238)      9572.0  Rx         0189  8  32 03 20 32 00 B4 00 00 
   239)      9572.3  Rx         0186  7  00 00 32 03 20 00 28 
   240)      9572.5  Rx         018A  6  32 00 00 06 FE 00 
   241)      9572.7  Rx         0217  8  00 00 70 00 00 00 00 88 
   242)      9572.9  Rx         02A9  1  F4 
   243)      9581.9  Rx         01F6  8  00 00 40 59 00 00 00 00 
   244)      9582.1  Rx         0189  8  32 03 20 32 00 B4 00 00 
   245)      9582.3  Rx         0186  7  00 00 32 03 20 00 28 
   246)      9582.5  Rx         018A  6  32 00 00 06 FE 00 
   247)      9591.6  Rx         01F6  8  00 00 40 59 00 00 00 00 
   248)      9591.8  Rx         02C6  6  00 00 00 40 00 00 
   249)      9592.1  Rx         0189  8  32 03 20 32 00 B4 00 00 
   250)      9592.3  Rx         0186  7  00 00 32 03 20 00 28 
   251)      9592.5  Rx         018A  6  32 00 00 06 FE 00 
   252)      9592.8  Rx         0217  8  00 00 70 00 00 00 00 88 
   253)      9592.9  Rx         02A9  1  F4 
   254)      9601.9  Rx         01F6  8  00 00 40 59 00 00 00 00 
   255)      9602.2  Rx         0189  8  32 03 20 32 00 B4 00 00 
   256)      9602.4  Rx         0186  7  00 00 32 03 20 00 28 
   257)      9602.6  Rx         018A  6  32 00 00 06 FE 00 
   258)      9611.7  Rx         01F6  8  00 00 40 59 00 00 00 00 
   259)      9611.9  Rx         02C6  6  00 00 00 40 00 00 
   260)      9612.1  Rx         0189  8  32 03 20 32 00 B4 00 00 
   261)      9612.4  Rx         0186  7  00 00 32 03 20 00 28 
   262)      9612.6  Rx         018A  6  32 00 00 06 FE 00 
   263)      9612.8  Rx         0217  8  00 00 70 00 00 00 00 88 
   264)      9612.9  Rx         02A9  1  F4 
   265)      9622.0  Rx         01F6  8  00 00 40 59 00 00 00 00 
   266)      9622.3  Rx         0189  8  32 03 20 32 00 B4 00 00 
   267)      9622.5  Rx         0186  7  00 00 32 03 20 00 28 
   268)      9622.7  Rx         018A  6  32 00 00 06 FE 00 
   269)      9631.7  Rx         01F6  8  00 00 40 59 00 00 00 00 
   270)      9631.9  Rx         02C6  6  00 00 00 40 00 00 
   271)      9632.2  Rx         0189  8  32 03 20 32 00 B4 00 00 
   272)      9632.4  Rx         0186  7  00 00 32 03 20 00 28 
   273)      9632.6  Rx         018A  6  32 00 00 06 FE 00 
   274)      9632.8  Rx         0217  8  00 00 70 00 00 00 00 88 
   275)      9633.0  Rx         02A9  1  F4 
   276)      9642.0  Rx         01F6  8  00 00 40 75 00 00 00 00 
   277)      9642.2  Rx         0189  8  32 03 20 32 00 B4 00 00 
   278)      9642.5  Rx         0186  7  00 00 32 03 20 00 28 
   279)      9642.7  Rx         018A  6  32 00 00 06 FE 00 
   280)      9651.8  Rx         01F6  8  00 00 40 75 00 00 00 00 
   281)      9652.0  Rx         05DA  8  41 89 00 00 BA FF FF 00 
   282)      9652.2  Rx         036E  4  09 99 09 99 
   283)      9652.3  Rx         03A5  3  00 00 00 
   284)      9652.6  Rx         0511  7  00 00 00 00 00 00 00 
   285)      9652.7  Rx         06FD  4  00 00 99 20 
   286)      9652.9  Rx         02C6  6  00 00 00 40 00 00 
   287)      9653.2  Rx         0648  8  C3 FF F0 00 00 7F FE 18 
   288)      9653.4  Rx         041A  8  00 03 00 00 00 00 00 00 
   289)      9653.7  Rx         066A  8  08 FF 00 01 01 C0 00 00 
   290)      9653.9  Rx         0189  8  32 03 20 32 00 B4 00 00 
   291)      9654.2  Rx         0186  7  00 00 32 03 20 00 28 
   292)      9654.3  Rx         018A  6  32 00 00 06 FE 00 
   293)      9654.6  Rx         0522  8  00 00 00 00 00 00 00 00 
   294)      9654.9  Rx         0217  8  00 00 70 00 00 00 00 88 
   295)      9655.0  Rx         065C  3  92 FF 00 
   296)      9655.2  Rx         041D  4  48 FE FF 00 
   297)      9655.3  Rx         02A9  1  F4 
   298)      9662.1  Rx         01F6  8  00 00 40 75 00 00 00 00 
   299)      9662.3  Rx         0189  8  32 03 20 32 00 B4 00 00 
   300)      9662.5  Rx         0186  7  00 00 32 03 20 00 28 
   301)      9662.7  Rx         018A  6  32 00 00 06 FE 00 
   302)      9671.8  Rx         01F6  8  00 00 40 75 00 00 00 00 
   303)      9672.1  Rx         02C6  6  00 00 00 40 00 00 
   304)      9672.3  Rx         0189  8  32 03 20 32 00 B4 00 00 
   305)      9672.5  Rx         0186  7  00 00 32 03 20 00 28 
   306)      9672.7  Rx         018A  6  32 00 00 06 FE 00 
   307)      9672.9  Rx         0217  8  00 00 70 00 00 00 00 88 
   308)      9673.1  Rx         02A9  1  F4 
   309)      9682.1  Rx         01F6  8  00 00 40 75 00 00 00 00 
   310)      9682.3  Rx         0189  8  32 03 20 32 00 B4 00 00 
   311)      9682.5  Rx         0186  7  00 00 32 03 20 00 28 
   312)      9682.8  Rx         018A  6  32 00 00 06 FE 00 
   313)      9691.8  Rx         01F6  8  00 00 40 75 00 00 00 00 
   314)      9692.1  Rx         02C6  6  00 00 00 40 00 00 
   315)      9692.3  Rx         0189  8  32 03 20 32 00 B4 00 00 
   316)      9692.5  Rx         0186  7  00 00 32 03 20 00 28 
   317)      9692.7  Rx         018A  6  32 00 00 06 FE 00 
   318)      9693.0  Rx         0217  8  00 00 70 00 00 00 00 88 
   319)      9693.1  Rx         02A9  1  F4 
   320)      9702.1  Rx         01F6  8  00 00 40 75 00 00 00 00 
   321)      9702.4  Rx         0189  8  32 03 20 32 00 B4 00 00 
   322)      9702.6  Rx         0186  7  00 00 32 03 20 00 28 
   323)      9702.8  Rx         018A  6  32 00 00 06 FE 00 
   324)      9711.9  Rx         01F6  8  00 00 40 75 00 00 00 00 
   325)      9712.2  Rx         02C6  6  00 00 00 40 00 00 
   326)      9712.4  Rx         0189  8  32 03 20 32 00 B4 00 00 
   327)      9712.6  Rx         0186  7  00 00 32 03 20 00 28 
   328)      9712.8  Rx         018A  6  32 00 00 06 FE 00 
   329)      9713.1  Rx         0217  8  00 00 70 00 00 00 00 88 
   330)      9713.2  Rx         02A9  1  F4 
   331)      9722.2  Rx         01F6  8  00 00 40 75 00 00 00 00 
   332)      9722.5  Rx         0189  8  32 03 20 32 00 B4 00 00 
   333)      9722.7  Rx         0186  7  00 00 32 03 20 00 28 
   334)      9722.9  Rx         018A  6  32 00 00 06 FE 00 
   335)      9732.0  Rx         01F6  8  00 00 40 75 00 00 00 00 
   336)      9732.2  Rx         02C6  6  00 00 00 40 00 00 
   337)      9732.4  Rx         0189  8  32 03 20 32 00 B4 00 00 
   338)      9732.6  Rx         0186  7  00 00 32 03 20 00 28 
   339)      9732.9  Rx         018A  6  32 00 00 06 FE 00 
   340)      9733.1  Rx         0217  8  00 00 70 00 00 00 00 88 
   341)      9733.2  Rx         02A9  1  F4 
   342)      9742.2  Rx         01F6  8  00 00 40 8E 00 00 00 00 
   343)      9742.5  Rx         0189  8  32 03 20 32 00 B4 00 00 
   344)      9742.7  Rx         0186  7  00 00 32 03 20 00 28 
   345)      9742.9  Rx         018A  6  32 00 00 06 FE 00 
   346)      9752.0  Rx         01F6  8  00 00 40 8E 00 00 00 00 
   347)      9752.3  Rx         05DA  8  41 84 00 00 BA FF FF 00 
   348)      9752.4  Rx         036E  4  09 99 09 99 
   349)      9752.6  Rx         03A5  3  00 00 00 
   350)      9752.8  Rx         0511  7  00 00 00 00 00 00 00 
   351)      9753.0  Rx         06FD  4  00 00 99 20 
   352)      9753.2  Rx         02C6  6  00 00 00 40 00 00 
   353)      9753.5  Rx         0648  8  C3 FF F0 00 00 7F FE 18 
   354)      9753.7  Rx         041A  8  00 03 00 00 00 00 00 00 
   355)      9753.9  Rx         066A  8  08 FF 00 01 01 C0 00 00 
   356)      9754.2  Rx         0189  8  32 03 20 32 00 B4 00 00 
   357)      9754.4  Rx         0186  7  00 00 32 03 20 00 28 
   358)      9754.6  Rx         018A  6  32 00 00 06 FE 00 
   359)      9754.9  Rx         0522  8  00 00 00 00 00 00 00 00 
   360)      9755.1  Rx         0217  8  00 00 70 00 00 00 00 88 
   361)      9755.3  Rx         065C  3  92 FF 00 
   362)      9755.4  Rx         041D  4  48 FE FF 00 
   363)      9755.5  Rx         02A9  1  F4 
   364)      9762.3  Rx         01F6  8  00 00 40 8E 00 00 00 00 
   365)      9762.5  Rx         0189  8  32 03 20 32 00 B4 00 00 
   366)      9762.8  Rx         0186  7  00 00 32 03 20 00 28 
   367)      9763.0  Rx         018A  6  32 00 00 06 FE 00 
   368)      9772.1  Rx         01F6  8  00 00 40 8E 00 00 00 00 
   369)      9772.3  Rx         02C6  6  00 00 00 40 00 00 
   370)      9772.5  Rx         0189  8  32 03 20 32 00 B4 00 00 
   371)      9772.7  Rx         0186  7  00 00 32 03 20 00 28 
   372)      9773.0  Rx         018A  6  32 00 00 06 FE 00 
   373)      9773.2  Rx         0217  8  00 00 70 00 00 00 00 88 
   374)      9773.3  Rx         02A9  1  F4 
   375)      9782.3  Rx         01F6  8  00 00 40 8E 00 00 00 00 
   376)      9782.6  Rx         0189  8  32 03 20 32 00 B4 00 00 
   377)      9782.8  Rx         0186  7  00 00 32 03 20 00 28 
   378)      9783.0  Rx         018A  6  32 00 00 06 FE 00 
   379)      9792.1  Rx         01F6  8  00 00 40 8E 00 00 00 00 
   380)      9792.3  Rx         02C6  6  00 00 00 40 00 00 
   381)      9792.6  Rx         0189  8  32 03 20 32 00 B4 00 00 
   382)      9792.8  Rx         0186  7  00 00 32 03 20 00 28 
   383)      9793.0  Rx         018A  6  32 00 00 06 FE 00 
   384)      9793.3  Rx         0217  8  00 00 70 00 00 00 00 88 
   385)      9793.4  Rx         02A9  1  F4 
   386)      9802.4  Rx         01F6  8  00 00 40 8E 00 00 00 00 
   387)      9802.6  Rx         0189  8  32 03 20 32 00 B4 00 00 
   388)      9802.8  Rx         0186  7  00 00 32 03 20 00 28 
   389)      9803.0  Rx         018A  6  32 00 00 06 FE 00 
   390)      9812.2  Rx         01F6  8  00 00 40 8E 00 00 00 00 
   391)      9812.4  Rx         02C6  6  00 00 00 40 00 00 
   392)      9812.6  Rx         0189  8  32 03 20 32 00 B4 00 00 
   393)      9812.8  Rx         0186  7  00 00 32 03 20 00 28 
   394)      9813.1  Rx         018A  6  32 00 00 06 FE 00 
   395)      9813.3  Rx         0217  8  00 00 70 00 00 00 00 88 
   396)      9813.4  Rx         02A9  1  F4 
   397)      9822.5  Rx         01F6  8  00 00 40 8E 00 00 00 00 
   398)      9822.7  Rx         0189  8  32 03 20 32 00 B4 00 00 
   399)      9823.0  Rx         0186  7  00 00 32 03 20 00 28 
