Time[s], Channel 0, Channel 1
0.000000000000000, 1, 0
0.001189000000000, 0, 0
0.001240000000000, 1, 0
0.002501000000000, 0, 0
0.002552000000000, 1, 0
0.003821000000000, 0, 0
0.003871000000000, 1, 0
0.005152000000000, 0, 0
0.005202000000000, 1, 0
0.006495000000000, 0, 0
0.006546000000000, 1, 0
0.007851000000000, 0, 0
0.007901000000000, 1, 0
0.008777000000000, 1, 1
0.009222000000000, 0, 1
0.009273000000000, 1, 1
0.010606000000000, 0, 1
0.010657000000000, 1, 1
0.011137000000000, 1, 0
0.012004000000000, 0, 0
0.012055000000000, 1, 0
0.013414000000000, 0, 0
0.013465000000000, 1, 0
0.013788000000000, 1, 1
0.014829000000000, 0, 1
0.014880000000000, 1, 1
0.016096000000000, 1, 0
0.016249000000000, 0, 0
0.016300000000000, 1, 0
0.017668000000000, 0, 0
0.017719000000000, 1, 0
0.018772000000000, 1, 1
0.019080000000000, 0, 1
0.019131000000000, 1, 1
0.020478000000000, 0, 1
0.020529000000000, 1, 1
0.021095000000000, 1, 0
0.021860000000000, 0, 0
0.021912000000000, 1, 0
0.023225000000000, 0, 0
0.023276000000000, 1, 0
0.024576000000000, 0, 0
0.024627000000000, 1, 0
0.025919000000000, 0, 0
0.025970000000000, 1, 0
0.027256000000000, 0, 0
0.027307000000000, 1, 0
0.028591000000000, 0, 0
0.028642000000000, 1, 0
0.029573000000000, 1, 1
0.029927000000000, 0, 1
0.029977000000000, 1, 1
0.031267000000000, 0, 1
0.031318000000000, 1, 1
0.031746000000000, 1, 0
0.032612000000000, 0, 0
0.032663000000000, 1, 0
0.033960000000000, 0, 0
0.034011000000000, 1, 0
0.034261000000000, 1, 1
0.035310000000000, 0, 1
0.035360000000000, 1, 1
0.036488000000000, 1, 0
0.039351000000000, 0, 0
0.039402000000000, 1, 0
0.040696000000000, 0, 0
0.040747000000000, 1, 0
0.042029000000000, 0, 0
0.042080000000000, 1, 0
0.043357000000000, 0, 0
0.043408000000000, 1, 0
0.044678000000000, 0, 0
0.044728000000000, 1, 0
0.045993000000000, 0, 0
0.046044000000000, 1, 0
0.047307000000000, 0, 0
0.047357000000000, 1, 0
0.048621000000000, 0, 0
0.048672000000000, 1, 0
0.049609000000000, 1, 1
0.049941000000000, 0, 1
0.049992000000000, 1, 1
0.051266000000000, 0, 1
0.051317000000000, 1, 1
0.051796000000000, 1, 0
0.052596000000000, 0, 0
0.052648000000000, 1, 0
0.053932000000000, 0, 0
0.053983000000000, 1, 0
0.054282000000000, 1, 1
0.055271000000000, 0, 1
0.055321000000000, 1, 1
0.056489000000000, 1, 0
0.056611000000000, 0, 0
0.056661000000000, 1, 0
0.057950000000000, 0, 0
0.058001000000000, 1, 0
0.059286000000000, 0, 0
0.059337000000000, 1, 0
0.060616000000000, 0, 0
0.060667000000000, 1, 0
0.061937000000000, 0, 0
0.061988000000000, 1, 0
0.063251000000000, 0, 0
0.063302000000000, 1, 0
0.064558000000000, 0, 0
0.064609000000000, 1, 0
0.065861000000000, 0, 0
0.065912000000000, 1, 0
0.067163000000000, 0, 0
0.067214000000000, 1, 0
0.068467000000000, 0, 0
0.068518000000000, 1, 0
0.069481000000000, 1, 1
0.069775000000000, 0, 1
0.069826000000000, 1, 1
0.071088000000000, 0, 1
0.071139000000000, 1, 1
0.071587000000000, 1, 0
0.072405000000000, 0, 0
0.072457000000000, 1, 0
0.073729000000000, 0, 0
0.073780000000000, 1, 0
0.075055000000000, 0, 0
0.075106000000000, 1, 0
0.076379000000000, 0, 0
0.076430000000000, 1, 0
0.077698000000000, 0, 0
0.077749000000000, 1, 0
0.079013000000000, 0, 0
0.079063000000000, 1, 0
0.080319000000000, 0, 0
0.080369000000000, 1, 0
0.081612000000000, 0, 0
0.081663000000000, 1, 0
0.082896000000000, 0, 0
0.082947000000000, 1, 0
0.084171000000000, 0, 0
0.084222000000000, 1, 0
0.085441000000000, 0, 0
0.085492000000000, 1, 0
0.086707000000000, 0, 0
0.086758000000000, 1, 0
0.087972000000000, 0, 0
0.088023000000000, 1, 0
0.088836000000000, 1, 1
0.089239000000000, 0, 1
0.089290000000000, 1, 1
0.090509000000000, 0, 1
0.090560000000000, 1, 1
0.090961000000000, 1, 0
0.091786000000000, 0, 0
0.091837000000000, 1, 0
0.093067000000000, 0, 0
0.093118000000000, 1, 0
0.093440000000000, 1, 1
0.094352000000000, 0, 1
0.094403000000000, 1, 1
0.095504000000000, 1, 0
0.095640000000000, 0, 0
0.095691000000000, 1, 0
0.096929000000000, 0, 0
0.096980000000000, 1, 0
0.097964000000000, 1, 1
0.098222000000000, 0, 1
0.098273000000000, 1, 1
0.099513000000000, 0, 1
0.099564000000000, 1, 1
0.100124000000000, 1, 0
0.100802000000000, 0, 0
0.100853000000000, 1, 0
0.102087000000000, 0, 0
0.102138000000000, 1, 0
0.103367000000000, 0, 0
0.103418000000000, 1, 0
0.104647000000000, 0, 0
0.104697000000000, 1, 0
0.105924000000000, 0, 0
0.105975000000000, 1, 0
0.107205000000000, 0, 0
0.107256000000000, 1, 0
0.108274000000000, 1, 1
0.108488000000000, 0, 1
0.108539000000000, 1, 1
0.109775000000000, 0, 1
0.109826000000000, 1, 1
0.110356000000000, 1, 0
0.111069000000000, 0, 0
0.111120000000000, 1, 0
0.112366000000000, 0, 0
0.112417000000000, 1, 0
0.113666000000000, 0, 0
0.113717000000000, 1, 0
0.117563000000000, 0, 0
0.117614000000000, 1, 0
0.118859000000000, 0, 0
0.118910000000000, 1, 0
0.120148000000000, 0, 0
0.120198000000000, 1, 0
0.121430000000000, 0, 0
0.121480000000000, 1, 0
0.122705000000000, 0, 0
0.122756000000000, 1, 0
0.123979000000000, 0, 0
0.124029000000000, 1, 0
0.125250000000000, 0, 0
0.125300000000000, 1, 0
0.126522000000000, 0, 0
0.126573000000000, 1, 0
0.127515000000000, 1, 1
0.127796000000000, 0, 1
0.127847000000000, 1, 1
0.129076000000000, 0, 1
0.129126000000000, 1, 1
0.129544000000000, 1, 0
0.130358000000000, 0, 0
0.130409000000000, 1, 0
0.131644000000000, 0, 0
0.131695000000000, 1, 0
0.132931000000000, 0, 0
0.132982000000000, 1, 0
0.134218000000000, 0, 0
0.134269000000000, 1, 0
0.135505000000000, 0, 0
0.135556000000000, 1, 0
0.136788000000000, 0, 0
0.136839000000000, 1, 0
0.138063000000000, 0, 0
0.138114000000000, 1, 0
0.139328000000000, 0, 0
0.139379000000000, 1, 0
0.140584000000000, 0, 0
0.140635000000000, 1, 0
0.141831000000000, 0, 0
0.141882000000000, 1, 0
0.143073000000000, 0, 0
0.143124000000000, 1, 0
0.144310000000000, 0, 0
0.144361000000000, 1, 0
0.145545000000000, 0, 0
0.145596000000000, 1, 0
0.146440000000000, 1, 1
0.146780000000000, 0, 1
0.146831000000000, 1, 1
0.148016000000000, 0, 1
0.148067000000000, 1, 1
0.148468000000000, 1, 0
0.149254000000000, 0, 0
0.149305000000000, 1, 0
0.150496000000000, 0, 0
0.150547000000000, 1, 0
0.150827000000000, 1, 1
0.151741000000000, 0, 1
0.151792000000000, 1, 1
0.152851000000000, 1, 0
0.152991000000000, 0, 0
0.153042000000000, 1, 0
0.154243000000000, 0, 0
0.154294000000000, 1, 0
0.155501000000000, 0, 0
0.155552000000000, 1, 0
0.156766000000000, 0, 0
0.156816000000000, 1, 0
0.158038000000000, 0, 0
0.158089000000000, 1, 0
0.159318000000000, 0, 0
0.159369000000000, 1, 0
0.160608000000000, 0, 0
0.160659000000000, 1, 0
0.161909000000000, 0, 0
0.161960000000000, 1, 0
0.163222000000000, 0, 0
0.163274000000000, 1, 0
0.164547000000000, 0, 0
0.164598000000000, 1, 0
0.165448000000000, 1, 1
0.165887000000000, 0, 1
0.165938000000000, 1, 1
0.167240000000000, 0, 1
0.167290000000000, 1, 1
0.167758000000000, 1, 0
0.168606000000000, 0, 0
0.168657000000000, 1, 0
0.169984000000000, 0, 0
0.170035000000000, 1, 0
0.170346000000000, 1, 1
0.171368000000000, 0, 1
0.171419000000000, 1, 1
0.172596000000000, 1, 0
0.172757000000000, 0, 0
0.172808000000000, 1, 0
0.174146000000000, 0, 0
0.174197000000000, 1, 0
0.175237000000000, 1, 1
0.175530000000000, 0, 1
0.175581000000000, 1, 1
0.176902000000000, 0, 1
0.176953000000000, 1, 1
0.177495000000000, 1, 0
0.178261000000000, 0, 0
0.178312000000000, 1, 0
0.179607000000000, 0, 0
0.179658000000000, 1, 0
0.180939000000000, 0, 0
0.180990000000000, 1, 0
0.182265000000000, 0, 0
0.182316000000000, 1, 0
0.183585000000000, 0, 0
0.183636000000000, 1, 0
0.184904000000000, 0, 0
0.184956000000000, 1, 0
0.185862000000000, 1, 1
0.186224000000000, 0, 1
0.186275000000000, 1, 1
0.187549000000000, 0, 1
0.187599000000000, 1, 1
0.188028000000000, 1, 0
0.188877000000000, 0, 0
0.188928000000000, 1, 0
0.190208000000000, 0, 0
0.190259000000000, 1, 0
0.190505000000000, 1, 1
0.191541000000000, 0, 1
0.191592000000000, 1, 1
0.192727000000000, 1, 0
0.195530000000000, 0, 0
0.195581000000000, 1, 0
0.196852000000000, 0, 0
0.196903000000000, 1, 0
0.198161000000000, 0, 0
0.198212000000000, 1, 0
0.199462000000000, 0, 0
0.199513000000000, 1, 0
0.200753000000000, 0, 0
0.200804000000000, 1, 0
0.202039000000000, 0, 0
0.202091000000000, 1, 0
0.203323000000000, 0, 0
0.203374000000000, 1, 0
0.204609000000000, 0, 0
0.204660000000000, 1, 0
0.205594000000000, 1, 1
0.205896000000000, 0, 1
0.205947000000000, 1, 1
0.207189000000000, 0, 1
0.207239000000000, 1, 1
0.207721000000000, 1, 0
0.208488000000000, 0, 0
0.208539000000000, 1, 0
0.209791000000000, 0, 0
0.209842000000000, 1, 0
0.210167000000000, 1, 1
0.211096000000000, 0, 1
0.211147000000000, 1, 1
0.212315000000000, 1, 0
0.212405000000000, 0, 0
0.212456000000000, 1, 0
0.213714000000000, 0, 0
0.213765000000000, 1, 0
0.215018000000000, 0, 0
0.215069000000000, 1, 0
0.216317000000000, 0, 0
0.216368000000000, 1, 0
0.217608000000000, 0, 0
0.217659000000000, 1, 0
0.218890000000000, 0, 0
0.218942000000000, 1, 0
0.220168000000000, 0, 0
0.220219000000000, 1, 0
0.221442000000000, 0, 0
0.221493000000000, 1, 0
0.222716000000000, 0, 0
0.222766000000000, 1, 0
0.223993000000000, 0, 0
0.224044000000000, 1, 0
0.225004000000000, 1, 1
0.225273000000000, 0, 1
0.225323000000000, 1, 1
0.226558000000000, 0, 1
0.226608000000000, 1, 1
0.227056000000000, 1, 0
0.227849000000000, 0, 0
0.227900000000000, 1, 0
0.229146000000000, 0, 0
0.229197000000000, 1, 0
0.230445000000000, 0, 0
0.230495000000000, 1, 0
0.231743000000000, 0, 0
0.231794000000000, 1, 0
0.233037000000000, 0, 0
0.233088000000000, 1, 0
0.234322000000000, 0, 0
0.234373000000000, 1, 0
0.235596000000000, 0, 0
0.235647000000000, 1, 0
0.236855000000000, 0, 0
0.236906000000000, 1, 0
0.238102000000000, 0, 0
0.238153000000000, 1, 0
0.239341000000000, 0, 0
0.239392000000000, 1, 0
0.240571000000000, 0, 0
0.240622000000000, 1, 0
0.241798000000000, 0, 0
0.241849000000000, 1, 0
0.243025000000000, 0, 0
0.243076000000000, 1, 0
0.243876000000000, 1, 1
0.244254000000000, 0, 1
0.244304000000000, 1, 1
0.245484000000000, 0, 1
0.245535000000000, 1, 1
0.245927000000000, 1, 0
0.246721000000000, 0, 0
0.246772000000000, 1, 0
0.247963000000000, 0, 0
0.248014000000000, 1, 0
0.248345000000000, 1, 1
0.249208000000000, 0, 1
0.249259000000000, 1, 1
0.250354000000000, 1, 0
0.250455000000000, 0, 0
0.250506000000000, 1, 0
0.251706000000000, 0, 0
0.251757000000000, 1, 0
0.252738000000000, 1, 1
0.252957000000000, 0, 1
0.253008000000000, 1, 1
0.254211000000000, 0, 1
0.254262000000000, 1, 1
0.254796000000000, 1, 0
0.255468000000000, 0, 0
0.255519000000000, 1, 0
0.256724000000000, 0, 0
0.256775000000000, 1, 0
0.257980000000000, 0, 0
0.258031000000000, 1, 0
0.259240000000000, 0, 0
0.259291000000000, 1, 0
0.260502000000000, 0, 0
0.260553000000000, 1, 0
0.261768000000000, 0, 0
0.261819000000000, 1, 0
0.262827000000000, 1, 1
0.263038000000000, 0, 1
0.263089000000000, 1, 1
0.264314000000000, 0, 1
0.264364000000000, 1, 1
0.264852000000000, 1, 0
0.265597000000000, 0, 0
0.265648000000000, 1, 0
0.266882000000000, 0, 0
0.266933000000000, 1, 0
0.268172000000000, 0, 0
0.268223000000000, 1, 0
0.272027000000000, 0, 0
0.272078000000000, 1, 0
0.273306000000000, 0, 0
0.273357000000000, 1, 0
0.274575000000000, 0, 0
0.274626000000000, 1, 0
0.275838000000000, 0, 0
0.275889000000000, 1, 0
0.277094000000000, 0, 0
0.277145000000000, 1, 0
0.278347000000000, 0, 0
0.278398000000000, 1, 0
0.279599000000000, 0, 0
0.279650000000000, 1, 0
0.280850000000000, 0, 0
0.280901000000000, 1, 0
0.281803000000000, 1, 1
0.282104000000000, 0, 1
0.282155000000000, 1, 1
0.283363000000000, 0, 1
0.283413000000000, 1, 1
0.283813000000000, 1, 0
0.284627000000000, 0, 0
0.284678000000000, 1, 0
0.285894000000000, 0, 0
0.285945000000000, 1, 0
0.287160000000000, 0, 0
0.287211000000000, 1, 0
0.288431000000000, 0, 0
0.288482000000000, 1, 0
0.289698000000000, 0, 0
0.289749000000000, 1, 0
0.290961000000000, 0, 0
0.291012000000000, 1, 0
0.292214000000000, 0, 0
0.292265000000000, 1, 0
0.293457000000000, 0, 0
0.293508000000000, 1, 0
0.294690000000000, 0, 0
0.294741000000000, 1, 0
0.295915000000000, 0, 0
0.295966000000000, 1, 0
0.297135000000000, 0, 0
0.297186000000000, 1, 0
0.298349000000000, 0, 0
0.298401000000000, 1, 0
0.299562000000000, 0, 0
0.299613000000000, 1, 0
0.300420000000000, 1, 1
0.300776000000000, 0, 1
0.300826000000000, 1, 1
0.301990000000000, 0, 1
0.302041000000000, 1, 1
0.302416000000000, 1, 0
0.303207000000000, 0, 0
0.303258000000000, 1, 0
0.304429000000000, 0, 0
0.304480000000000, 1, 0
0.304704000000000, 1, 1
0.305652000000000, 0, 1
0.305703000000000, 1, 1
0.306707000000000, 1, 0
0.306880000000000, 0, 0
0.306931000000000, 1, 0
0.308111000000000, 0, 0
0.308162000000000, 1, 0
0.309347000000000, 0, 0
0.309398000000000, 1, 0
0.310589000000000, 0, 0
0.310641000000000, 1, 0
0.311838000000000, 0, 0
0.311889000000000, 1, 0
0.313096000000000, 0, 0
0.313147000000000, 1, 0
0.314362000000000, 0, 0
0.314412000000000, 1, 0
0.315637000000000, 0, 0
0.315687000000000, 1, 0
0.316925000000000, 0, 0
0.316975000000000, 1, 0
0.318222000000000, 0, 0
0.318273000000000, 1, 0
0.319074000000000, 1, 1
0.319533000000000, 0, 1
0.319584000000000, 1, 1
0.320856000000000, 0, 1
0.320907000000000, 1, 1
0.321342000000000, 1, 0
0.322191000000000, 0, 0
0.322243000000000, 1, 0
0.323538000000000, 0, 0
0.323589000000000, 1, 0
0.323878000000000, 1, 1
0.324889000000000, 0, 1
0.324940000000000, 1, 1
0.326083000000000, 1, 0
0.326246000000000, 0, 0
0.326297000000000, 1, 0
0.327602000000000, 0, 0
0.327653000000000, 1, 0
0.328630000000000, 1, 1
0.328950000000000, 0, 1
0.329001000000000, 1, 1
0.330288000000000, 0, 1
0.330339000000000, 1, 1
0.330856000000000, 1, 0
0.331611000000000, 0, 0
0.331662000000000, 1, 0
0.332920000000000, 0, 0
0.332970000000000, 1, 0
0.334217000000000, 0, 0
0.334268000000000, 1, 0
0.335507000000000, 0, 0
0.335557000000000, 1, 0
0.336793000000000, 0, 0
0.336844000000000, 1, 0
0.338079000000000, 0, 0
0.338130000000000, 1, 0
0.339023000000000, 1, 1
0.339365000000000, 0, 1
0.339416000000000, 1, 1
0.340658000000000, 0, 1
0.340708000000000, 1, 1
0.341132000000000, 1, 0
0.341953000000000, 0, 0
0.342004000000000, 1, 0
0.343253000000000, 0, 0
0.343304000000000, 1, 0
0.343548000000000, 1, 1
0.344555000000000, 0, 1
0.344606000000000, 1, 1
0.345692000000000, 1, 0
0.348451000000000, 0, 0
0.348502000000000, 1, 0
0.349744000000000, 0, 0
0.349795000000000, 1, 0
0.351025000000000, 0, 0
0.351076000000000, 1, 0
0.352298000000000, 0, 0
0.352349000000000, 1, 0
0.353562000000000, 0, 0
0.353612000000000, 1, 0
0.354824000000000, 0, 0
0.354874000000000, 1, 0
0.356083000000000, 0, 0
0.356134000000000, 1, 0
0.357342000000000, 0, 0
0.357393000000000, 1, 0
0.358299000000000, 1, 1
0.358605000000000, 0, 1
0.358656000000000, 1, 1
0.359874000000000, 0, 1
0.359925000000000, 1, 1
0.360399000000000, 1, 0
0.361147000000000, 0, 0
0.361198000000000, 1, 0
0.362424000000000, 0, 0
0.362474000000000, 1, 0
0.362778000000000, 1, 1
0.363702000000000, 0, 1
0.363753000000000, 1, 1
0.364896000000000, 1, 0
0.364983000000000, 0, 0
0.365034000000000, 1, 0
0.366264000000000, 0, 0
0.366315000000000, 1, 0
0.367539000000000, 0, 0
0.367590000000000, 1, 0
0.368810000000000, 0, 0
0.368861000000000, 1, 0
0.370073000000000, 0, 0
0.370124000000000, 1, 0
0.371329000000000, 0, 0
0.371380000000000, 1, 0
0.372580000000000, 0, 0
0.372630000000000, 1, 0
0.373828000000000, 0, 0
0.373879000000000, 1, 0
0.375076000000000, 0, 0
0.375127000000000, 1, 0
0.376325000000000, 0, 0
0.376376000000000, 1, 0
0.377345000000000, 1, 1
0.377578000000000, 0, 1
0.377629000000000, 1, 1
0.378836000000000, 0, 1
0.378887000000000, 1, 1
0.379308000000000, 1, 0
0.380100000000000, 0, 0
0.380151000000000, 1, 0
0.381367000000000, 0, 0
0.381418000000000, 1, 0
0.382638000000000, 0, 0
0.382689000000000, 1, 0
0.383909000000000, 0, 0
0.383959000000000, 1, 0
0.385174000000000, 0, 0
0.385225000000000, 1, 0
0.386438000000000, 0, 0
0.386488000000000, 1, 0
0.387693000000000, 0, 0
0.387744000000000, 1, 0
0.388942000000000, 0, 0
0.388993000000000, 1, 0
0.390183000000000, 0, 0
0.390234000000000, 1, 0
0.391415000000000, 0, 0
0.391465000000000, 1, 0
0.392641000000000, 0, 0
0.392692000000000, 1, 0
0.393864000000000, 0, 0
0.393915000000000, 1, 0
0.395085000000000, 0, 0
0.395136000000000, 1, 0
0.395925000000000, 1, 1
0.396306000000000, 0, 1
0.396357000000000, 1, 1
0.397530000000000, 0, 1
0.397581000000000, 1, 1
0.397961000000000, 1, 0
0.398756000000000, 0, 0
0.398807000000000, 1, 0
0.399988000000000, 0, 0
0.400039000000000, 1, 0
0.400364000000000, 1, 1
0.401222000000000, 0, 1
0.401273000000000, 1, 1
0.402342000000000, 1, 0
0.402457000000000, 0, 0
0.402508000000000, 1, 0
0.403695000000000, 0, 0
0.403746000000000, 1, 0
0.404702000000000, 1, 1
0.404934000000000, 0, 1
0.404985000000000, 1, 1
0.406176000000000, 0, 1
0.406227000000000, 1, 1
0.406767000000000, 1, 0
0.407420000000000, 0, 0
0.407471000000000, 1, 0
0.408665000000000, 0, 0
0.408717000000000, 1, 0
0.409915000000000, 0, 0
0.409966000000000, 1, 0
0.411167000000000, 0, 0
0.411218000000000, 1, 0
0.412423000000000, 0, 0
0.412474000000000, 1, 0
0.413687000000000, 0, 0
0.413738000000000, 1, 0
0.414740000000000, 1, 1
0.414954000000000, 0, 1
0.415006000000000, 1, 1
0.416230000000000, 0, 1
0.416281000000000, 1, 1
0.416776000000000, 1, 0
0.417511000000000, 0, 0
0.417562000000000, 1, 0
0.418794000000000, 0, 0
0.418845000000000, 1, 0
0.420083000000000, 0, 0
0.420134000000000, 1, 0
0.423932000000000, 0, 0
0.423983000000000, 1, 0
0.425212000000000, 0, 0
0.425263000000000, 1, 0
0.426484000000000, 0, 0
0.426535000000000, 1, 0
0.427747000000000, 0, 0
0.427798000000000, 1, 0
0.429007000000000, 0, 0
0.429058000000000, 1, 0
0.430262000000000, 0, 0
0.430313000000000, 1, 0
0.431513000000000, 0, 0
0.431564000000000, 1, 0
0.432765000000000, 0, 0
0.432816000000000, 1, 0
0.433730000000000, 1, 1
0.434018000000000, 0, 1
0.434068000000000, 1, 1
0.435275000000000, 0, 1
0.435325000000000, 1, 1
0.435722000000000, 1, 0
0.436535000000000, 0, 0
0.436586000000000, 1, 0
0.437796000000000, 0, 0
0.437847000000000, 1, 0
0.439061000000000, 0, 0
0.439112000000000, 1, 0
0.440323000000000, 0, 0
0.440374000000000, 1, 0
0.441585000000000, 0, 0
0.441635000000000, 1, 0
0.442841000000000, 0, 0
0.442891000000000, 1, 0
0.444087000000000, 0, 0
0.444137000000000, 1, 0
0.445323000000000, 0, 0
0.445373000000000, 1, 0
0.446550000000000, 0, 0
0.446600000000000, 1, 0
0.447767000000000, 0, 0
0.447818000000000, 1, 0
0.448980000000000, 0, 0
0.449031000000000, 1, 0
0.450188000000000, 0, 0
0.450239000000000, 1, 0
0.451393000000000, 0, 0
0.451444000000000, 1, 0
0.452252000000000, 1, 1
0.452600000000000, 0, 1
0.452651000000000, 1, 1
0.453809000000000, 0, 1
0.453859000000000, 1, 1
0.454260000000000, 1, 0
0.455021000000000, 0, 0
0.455072000000000, 1, 0
0.456235000000000, 0, 0
0.456286000000000, 1, 0
0.456537000000000, 1, 1
0.457455000000000, 0, 1
0.457506000000000, 1, 1
0.458536000000000, 1, 0
0.458679000000000, 0, 0
0.458730000000000, 1, 0
0.459905000000000, 0, 0
0.459956000000000, 1, 0
0.461138000000000, 0, 0
0.461189000000000, 1, 0
0.462377000000000, 0, 0
0.462429000000000, 1, 0
0.463624000000000, 0, 0
0.463675000000000, 1, 0
0.464879000000000, 0, 0
0.464930000000000, 1, 0
0.466143000000000, 0, 0
0.466194000000000, 1, 0
0.467417000000000, 0, 0
0.467468000000000, 1, 0
0.468702000000000, 0, 0
0.468753000000000, 1, 0
0.469999000000000, 0, 0
0.470050000000000, 1, 0
0.470886000000000, 1, 1
0.471309000000000, 0, 1
0.471360000000000, 1, 1
0.472631000000000, 0, 1
0.472682000000000, 1, 1
0.473148000000000, 1, 0
0.473964000000000, 0, 0
0.474015000000000, 1, 0
0.475311000000000, 0, 0
0.475361000000000, 1, 0
0.475684000000000, 1, 1
0.476661000000000, 0, 1
0.476712000000000, 1, 1
0.477894000000000, 1, 0
0.478016000000000, 0, 0
0.478067000000000, 1, 0
0.479371000000000, 0, 0
0.479422000000000, 1, 0
0.480433000000000, 1, 1
0.480721000000000, 0, 1
0.480772000000000, 1, 1
0.482063000000000, 0, 1
0.482114000000000, 1, 1
0.482674000000000, 1, 0
0.483389000000000, 0, 0
0.483441000000000, 1, 0
0.484702000000000, 0, 0
0.484753000000000, 1, 0
0.486004000000000, 0, 0
0.486055000000000, 1, 0
0.487297000000000, 0, 0
0.487348000000000, 1, 0
0.488584000000000, 0, 0
